     1)         9.3  Rx     0000011D  8  5B 00 00 00 00 00 00 00 
     2)         9.6  Rx     00000108  8  41 32 33 31 51 41 30 30 
     3)        48.9  Rx     0000011D  8  5B 00 00 00 00 00 00 00 
     4)        49.2  Rx     00000108  8  41 32 33 31 51 41 30 30 
     5)        88.6  Rx     0000011D  8  5B 00 00 00 00 00 00 00 
     6)        88.8  Rx     00000108  8  41 32 33 31 51 41 30 30 
     7)       128.2  Rx     0000011D  8  5B 00 00 00 00 00 00 00 
     8)       128.5  Rx     00000108  8  41 32 33 31 51 41 30 30 
     9)       167.9  Rx     0000011D  8  5B 00 00 00 00 00 00 00 
    10)       168.2  Rx     00000108  8  41 32 33 31 51 41 30 30 
    11)       207.5  Rx     0000011D  8  5B 00 00 00 00 00 00 00 
    12)       207.8  Rx     00000108  8  41 32 33 31 51 41 30 30 
    13)       247.1  Rx     0000011D  8  5B 00 00 00 00 00 00 00 
    14)       247.4  Rx     00000108  8  41 32 33 31 51 41 30 30 
    15)       286.8  Rx     0000011D  8  5B 00 00 00 00 00 00 00 
    16)       287.1  Rx     00000108  8  41 32 33 31 51 41 30 30 
    17)       326.5  Rx     0000011D  8  5B 00 00 00 00 00 00 00 
    18)       326.7  Rx     00000108  8  41 32 33 31 51 41 30 30 
    19)       366.1  Rx     0000011D  8  5B 00 00 00 00 00 00 00 
    20)       366.4  Rx     00000108  8  41 32 33 31 51 41 30 30 
    21)       405.8  Rx     0000011D  8  5B 00 00 00 00 00 00 00 
    22)       406.1  Rx     00000108  8  41 32 33 31 51 41 30 30 
    23)       445.4  Rx     0000011D  8  5B 00 00 00 00 00 00 00 
    24)       445.7  Rx     00000108  8  41 32 33 31 51 41 30 30 
    25)       485.0  Rx     0000011D  8  5B 00 00 00 00 00 00 00 
    26)       485.3  Rx     00000108  8  41 32 33 31 51 41 30 30 
    27)       524.7  Rx     0000011D  8  5B 00 00 00 00 00 00 00 
    28)       525.0  Rx     00000108  8  41 32 33 31 51 41 30 30 
    29)       564.3  Rx     0000011D  8  5B 00 00 00 00 00 00 00 
    30)       564.6  Rx     00000108  8  41 32 33 31 51 41 30 30 
    31)       604.0  Rx     0000011D  8  5B 00 00 00 00 00 00 00 
    32)       604.2  Rx     00000108  8  41 32 33 31 51 41 30 30 
    33)       643.6  Rx     0000011D  8  5B 00 00 00 00 00 00 00 
    34)       643.9  Rx     00000108  8  41 32 33 31 51 41 30 30 
    35)       683.3  Rx     0000011D  8  5B 00 00 00 00 00 00 00 
    36)       683.6  Rx     00000108  8  41 32 33 31 51 41 30 30 
    37)       722.9  Rx     0000011D  8  5B 00 00 00 00 00 00 00 
    38)       723.2  Rx     00000108  8  41 32 33 31 51 41 30 30 
    39)       762.5  Rx     0000011D  8  5B 00 00 00 00 00 00 00 
    40)       762.8  Rx     00000108  8  41 32 33 31 51 41 30 30 
    41)       802.2  Rx     0000011D  8  5B 00 00 00 00 00 00 00 
    42)       802.5  Rx     00000108  8  41 32 33 31 51 41 30 30 
    43)       841.8  Rx     0000011D  8  5B 00 00 00 00 00 00 00 
    44)       842.1  Rx     00000108  8  41 32 33 31 51 41 30 30 
    45)       881.5  Rx     0000011D  8  5B 00 00 00 00 00 00 00 
    46)       881.7  Rx     00000108  8  41 32 33 31 51 41 30 30 
    47)       921.1  Rx     0000011D  8  5B 00 00 00 00 00 00 00 
    48)       921.4  Rx     00000108  8  41 32 33 31 51 41 30 30 
    49)       960.8  Rx     0000011D  8  5B 00 00 00 00 00 00 00 
    50)       961.1  Rx     00000108  8  41 32 33 31 51 41 30 30 
    51)      1000.4  Rx     0000011D  8  5B 00 00 00 00 00 00 00 
    52)      1000.7  Rx     00000108  8  41 32 33 31 51 41 30 30 
    53)      1040.0  Rx     0000011D  8  5B 00 00 00 00 00 00 00 
    54)      1040.3  Rx     00000108  8  41 32 33 31 51 41 30 30 
    55)      1079.7  Rx     0000011D  8  5B 00 00 00 00 00 00 00 
    56)      1080.0  Rx     00000108  8  41 32 33 31 51 41 30 30 
    57)      1119.3  Rx     0000011D  8  5B 00 00 00 00 00 00 00 
    58)      1119.6  Rx     00000108  8  41 32 33 31 51 41 30 30 
    59)      1159.0  Rx     0000011D  8  5B 00 00 00 00 00 00 00 
    60)      1159.2  Rx     00000108  8  41 32 33 31 51 41 30 30 
    61)      1198.6  Rx     0000011D  8  5B 00 00 00 00 00 00 00 
    62)      1198.9  Rx     00000108  8  41 32 33 31 51 41 30 30 
    63)      1238.3  Rx     0000011D  8  5B 00 00 00 00 00 00 00 
    64)      1238.6  Rx     00000108  8  41 32 33 31 51 41 30 30 
    65)      1277.9  Rx     0000011D  8  5B 00 00 00 00 00 00 00 
    66)      1278.2  Rx     00000108  8  41 32 33 31 51 41 30 30 
    67)      1317.5  Rx     0000011D  8  5B 00 00 00 00 00 00 00 
    68)      1317.8  Rx     00000108  8  41 32 33 31 51 41 30 30 
    69)      1357.2  Rx     0000011D  8  5B 00 00 00 00 00 00 00 
    70)      1357.5  Rx     00000108  8  41 32 33 31 51 41 30 30 
    71)      1396.9  Rx     0000011D  8  5B 00 00 00 00 00 00 00 
    72)      1397.1  Rx     00000108  8  41 32 33 31 51 41 30 30 
    73)      1436.5  Rx     0000011D  8  5B 00 00 00 00 00 00 00 
    74)      1436.8  Rx     00000108  8  41 32 33 31 51 41 30 30 
    75)      1476.2  Rx     0000011D  8  5B 00 00 00 00 00 00 00 
    76)      1476.4  Rx     00000108  8  41 32 33 31 51 41 30 30 
    77)      1515.8  Rx     0000011D  8  5B 00 00 00 00 00 00 00 
    78)      1516.1  Rx     00000108  8  41 32 33 31 51 41 30 30 
    79)      1555.4  Rx     0000011D  8  5B 00 00 00 00 00 00 00 
    80)      1555.7  Rx     00000108  8  41 32 33 31 51 41 30 30 
    81)      1595.1  Rx     0000011D  8  5B 00 00 00 00 00 00 00 
    82)      1595.4  Rx     00000108  8  41 32 33 31 51 41 30 30 
    83)      1634.7  Rx     0000011D  8  5B 00 00 00 00 00 00 00 
    84)      1635.0  Rx     00000108  8  41 32 33 31 51 41 30 30 
    85)      1674.4  Rx     0000011D  8  5B 00 00 00 00 00 00 00 
    86)      1674.6  Rx     00000108  8  41 32 33 31 51 41 30 30 
    87)      1714.0  Rx     0000011D  8  5B 00 00 00 00 00 00 00 
    88)      1714.3  Rx     00000108  8  41 32 33 31 51 41 30 30 
    89)      1753.7  Rx     0000011D  8  5B 00 00 00 00 00 00 00 
    90)      1753.9  Rx     00000108  8  41 32 33 31 51 41 30 30 
    91)      1793.3  Rx     0000011D  8  5B 00 00 00 00 00 00 00 
    92)      1793.6  Rx     00000108  8  41 32 33 31 51 41 30 30 
    93)      1832.9  Rx     0000011D  8  5B 00 00 00 00 00 00 00 
    94)      1833.2  Rx     00000108  8  41 32 33 31 51 41 30 30 
    95)      1872.6  Rx     0000011D  8  5B 00 00 00 00 00 00 00 
    96)      1872.9  Rx     00000108  8  41 32 33 31 51 41 30 30 
    97)      1912.2  Rx     0000011D  8  5B 00 00 00 00 00 00 00 
    98)      1912.5  Rx     00000108  8  41 32 33 31 51 41 30 30 
    99)      1951.8  Rx     0000011D  8  5B 00 00 00 00 00 00 00 
   100)      1952.1  Rx     00000108  8  41 32 33 31 51 41 30 30 
   101)      1991.5  Rx     0000011D  8  5B 00 00 00 00 00 00 00 
   102)      1991.8  Rx     00000108  8  41 32 33 31 51 41 30 30 
   103)      2031.2  Rx     0000011D  8  5B 00 00 00 00 00 00 00 
   104)      2031.4  Rx     00000108  8  41 32 33 31 51 41 30 30 
   105)      2070.8  Rx     0000011D  8  5B 00 00 00 00 00 00 00 
   106)      2071.0  Rx     00000108  8  41 32 33 31 51 41 30 30 
   107)      2110.4  Rx     0000011D  8  5B 00 00 00 00 00 00 00 
   108)      2110.7  Rx     00000108  8  41 32 33 31 51 41 30 30 
   109)      2150.1  Rx     0000011D  8  5B 00 00 00 00 00 00 00 
   110)      2150.4  Rx     00000108  8  41 32 33 31 51 41 30 30 
   111)      2189.7  Rx     0000011D  8  5B 00 00 00 00 00 00 00 
   112)      2190.0  Rx     00000108  8  41 32 33 31 51 41 30 30 
   113)      2229.3  Rx     0000011D  8  5B 00 00 00 00 00 00 00 
   114)      2229.6  Rx     00000108  8  41 32 33 31 51 41 30 30 
   115)      2269.0  Rx     0000011D  8  5B 00 00 00 00 00 00 00 
   116)      2269.3  Rx     00000108  8  41 32 33 31 51 41 30 30 
   117)      2308.6  Rx     0000011D  8  5B 00 00 00 00 00 00 00 
   118)      2308.9  Rx     00000108  8  41 32 33 31 51 41 30 30 
   119)      2348.3  Rx     0000011D  8  5B 00 00 00 00 00 00 00 
   120)      2348.6  Rx     00000108  8  41 32 33 31 51 41 30 30 
   121)      2388.0  Rx     0000011D  8  5B 00 00 00 00 00 00 00 
   122)      2388.2  Rx     00000108  8  41 32 33 31 51 41 30 30 
   123)      2427.6  Rx     0000011D  8  5B 00 00 00 00 00 00 00 
   124)      2427.8  Rx     00000108  8  41 32 33 31 51 41 30 30 
   125)      2467.2  Rx     0000011D  8  5B 00 00 00 00 00 00 00 
   126)      2467.5  Rx     00000108  8  41 32 33 31 51 41 30 30 
   127)      2506.9  Rx     0000011D  8  5B 00 00 00 00 00 00 00 
   128)      2507.2  Rx     00000108  8  41 32 33 31 51 41 30 30 
   129)      2546.5  Rx     0000011D  8  5B 00 00 00 00 00 00 00 
   130)      2546.8  Rx     00000108  8  41 32 33 31 51 41 30 30 
   131)      2586.1  Rx     0000011D  8  5B 00 00 00 00 00 00 00 
   132)      2586.4  Rx     00000108  8  41 32 33 31 51 41 30 30 
   133)      2625.8  Rx     0000011D  8  5B 00 00 00 00 00 00 00 
   134)      2626.1  Rx     00000108  8  41 32 33 31 51 41 30 30 
   135)      2665.5  Rx     0000011D  8  5B 00 00 00 00 00 00 00 
   136)      2665.7  Rx     00000108  8  41 32 33 31 51 41 30 30 
   137)      2705.1  Rx     0000011D  8  5B 00 00 00 00 00 00 00 
   138)      2705.4  Rx     00000108  8  41 32 33 31 51 41 30 30 
   139)      2744.7  Rx     0000011D  8  5B 00 00 00 00 00 00 00 
   140)      2745.0  Rx     00000108  8  41 32 33 31 51 41 30 30 
   141)      2784.4  Rx     0000011D  8  5B 00 00 00 00 00 00 00 
   142)      2784.7  Rx     00000108  8  41 32 33 31 51 41 30 30 
   143)      2824.0  Rx     0000011D  8  5B 00 00 00 00 00 00 00 
   144)      2824.3  Rx     00000108  8  41 32 33 31 51 41 30 30 
   145)      2863.6  Rx     0000011D  8  5B 00 00 00 00 00 00 00 
   146)      2863.9  Rx     00000108  8  41 32 33 31 51 41 30 30 
   147)      2903.3  Rx     0000011D  8  5B 00 00 00 00 00 00 00 
   148)      2903.6  Rx     00000108  8  41 32 33 31 51 41 30 30 
   149)      2943.0  Rx     0000011D  8  5B 00 00 00 00 00 00 00 
   150)      2943.2  Rx     00000108  8  41 32 33 31 51 41 30 30 
   151)      2982.6  Rx     0000011D  8  5B 00 00 00 00 00 00 00 
   152)      2982.8  Rx     00000108  8  41 32 33 31 51 41 30 30 
   153)      3022.2  Rx     0000011D  8  5B 00 00 00 00 00 00 00 
   154)      3022.5  Rx     00000108  8  41 32 33 31 51 41 30 30 
   155)      3061.9  Rx     0000011D  8  5B 00 00 00 00 00 00 00 
   156)      3062.2  Rx     00000108  8  41 32 33 31 51 41 30 30 
   157)      3101.5  Rx     0000011D  8  5B 00 00 00 00 00 00 00 
   158)      3101.8  Rx     00000108  8  41 32 33 31 51 41 30 30 
   159)      3141.1  Rx     0000011D  8  5B 00 00 00 00 00 00 00 
   160)      3141.4  Rx     00000108  8  41 32 33 31 51 41 30 30 
   161)      3180.8  Rx     0000011D  8  5B 00 00 00 00 00 00 00 
   162)      3181.1  Rx     00000108  8  41 32 33 31 51 41 30 30 
   163)      3220.4  Rx     0000011D  8  5B 00 00 00 00 00 00 00 
   164)      3220.7  Rx     00000108  8  41 32 33 31 51 41 30 30 
   165)      3260.0  Rx     0000011D  8  5B 00 00 00 00 00 00 00 
   166)      3260.3  Rx     00000108  8  41 32 33 31 51 41 30 30 
   167)      3299.7  Rx     0000011D  8  5B 00 00 00 00 00 00 00 
   168)      3300.0  Rx     00000108  8  41 32 33 31 51 41 30 30 
   169)      3339.4  Rx     0000011D  8  5B 00 00 00 00 00 00 00 
   170)      3339.6  Rx     00000108  8  41 32 33 31 51 41 30 30 
   171)      3379.0  Rx     0000011D  8  5B 00 00 00 00 00 00 00 
   172)      3379.3  Rx     00000108  8  41 32 33 31 51 41 30 30 
   173)      3418.7  Rx     0000011D  8  5B 00 00 00 00 00 00 00 
   174)      3419.0  Rx     00000108  8  41 32 33 31 51 41 30 30 
   175)      3458.3  Rx     0000011D  8  5B 00 00 00 00 00 00 00 
   176)      3458.6  Rx     00000108  8  41 32 33 31 51 41 30 30 
   177)      3497.9  Rx     0000011D  8  5B 00 00 00 00 00 00 00 
   178)      3498.2  Rx     00000108  8  41 32 33 31 51 41 30 30 
   179)      3537.6  Rx     0000011D  8  5B 00 00 00 00 00 00 00 
   180)      3537.9  Rx     00000108  8  41 32 33 31 51 41 30 30 
   181)      3577.2  Rx     0000011D  8  5B 00 00 00 00 00 00 00 
   182)      3577.5  Rx     00000108  8  41 32 33 31 51 41 30 30 
   183)      3616.9  Rx     0000011D  8  5B 00 00 00 00 00 00 00 
   184)      3617.1  Rx     00000108  8  41 32 33 31 51 41 30 30 
   185)      3656.5  Rx     0000011D  8  5B 00 00 00 00 00 00 00 
   186)      3656.8  Rx     00000108  8  41 32 33 31 51 41 30 30 
   187)      3696.2  Rx     0000011D  8  5B 00 00 00 00 00 00 00 
   188)      3696.5  Rx     00000108  8  41 32 33 31 51 41 30 30 
   189)      3735.8  Rx     0000011D  8  5B 00 00 00 00 00 00 00 
   190)      3736.1  Rx     00000108  8  41 32 33 31 51 41 30 30 
   191)      3775.4  Rx     0000011D  8  5B 00 00 00 00 00 00 00 
   192)      3775.7  Rx     00000108  8  41 32 33 31 51 41 30 30 
   193)      3815.1  Rx     0000011D  8  5B 00 00 00 00 00 00 00 
   194)      3815.4  Rx     00000108  8  41 32 33 31 51 41 30 30 
   195)      3854.7  Rx     0000011D  8  5B 00 00 00 00 00 00 00 
   196)      3855.0  Rx     00000108  8  41 32 33 31 51 41 30 30 
   197)      3894.4  Rx     0000011D  8  5B 00 00 00 00 00 00 00 
   198)      3894.6  Rx     00000108  8  41 32 33 31 51 41 30 30 
   199)      3934.0  Rx     0000011D  8  5B 00 00 00 00 00 00 00 
   200)      3934.3  Rx     00000108  8  41 32 33 31 51 41 30 30 
   201)      3973.7  Rx     0000011D  8  5B 00 00 00 00 00 00 00 
   202)      3974.0  Rx     00000108  8  41 32 33 31 51 41 30 30 
   203)      4013.3  Rx     0000011D  8  5B 00 00 00 00 00 00 00 
   204)      4013.6  Rx     00000108  8  41 32 33 31 51 41 30 30 
   205)      4052.9  Rx     0000011D  8  5B 00 00 00 00 00 00 00 
   206)      4053.2  Rx     00000108  8  41 32 33 31 51 41 30 30 
   207)      4092.6  Rx     0000011D  8  5B 00 00 00 00 00 00 00 
   208)      4092.9  Rx     00000108  8  41 32 33 31 51 41 30 30 
   209)      4132.3  Rx     0000011D  8  5B 00 00 00 00 00 00 00 
   210)      4132.5  Rx     00000108  8  41 32 33 31 51 41 30 30 
   211)      4171.9  Rx     0000011D  8  5B 00 00 00 00 00 00 00 
   212)      4172.2  Rx     00000108  8  41 32 33 31 51 41 30 30 
   213)      4211.5  Rx     0000011D  8  5B 00 00 00 00 00 00 00 
   214)      4211.8  Rx     00000108  8  41 32 33 31 51 41 30 30 
   215)      4251.2  Rx     0000011D  8  5B 00 00 00 00 00 00 00 
   216)      4251.5  Rx     00000108  8  41 32 33 31 51 41 30 30 
   217)      4290.8  Rx     0000011D  8  5B 00 00 00 00 00 00 00 
   218)      4291.1  Rx     00000108  8  41 32 33 31 51 41 30 30 
   219)      4330.5  Rx     0000011D  8  5B 00 00 00 00 00 00 00 
   220)      4330.7  Rx     00000108  8  41 32 33 31 51 41 30 30 
   221)      4370.1  Rx     0000011D  8  5B 00 00 00 00 00 00 00 
   222)      4370.4  Rx     00000108  8  41 32 33 31 51 41 30 30 
   223)      4409.8  Rx     0000011D  8  5B 00 00 00 00 00 00 00 
   224)      4410.1  Rx     00000108  8  41 32 33 31 51 41 30 30 
   225)      4449.4  Rx     0000011D  8  5B 00 00 00 00 00 00 00 
   226)      4449.7  Rx     00000108  8  41 32 33 31 51 41 30 30 
   227)      4489.1  Rx     0000011D  8  5B 00 00 00 00 00 00 00 
   228)      4489.4  Rx     00000108  8  41 32 33 31 51 41 30 30 
   229)      4528.7  Rx     0000011D  8  5B 00 00 00 00 00 00 00 
   230)      4529.0  Rx     00000108  8  41 32 33 31 51 41 30 30 
   231)      4568.4  Rx     0000011D  8  5B 00 00 00 00 00 00 00 
   232)      4568.7  Rx     00000108  8  41 32 33 31 51 41 30 30 
   233)      4608.0  Rx     0000011D  8  5B 00 00 00 00 00 00 00 
   234)      4608.3  Rx     00000108  8  41 32 33 31 51 41 30 30 
   235)      4647.7  Rx     0000011D  8  5B 00 00 00 00 00 00 00 
   236)      4647.9  Rx     00000108  8  41 32 33 31 51 41 30 30 
   237)      4687.3  Rx     0000011D  8  5B 00 00 00 00 00 00 00 
   238)      4687.6  Rx     00000108  8  41 32 33 31 51 41 30 30 
   239)      4727.0  Rx     0000011D  8  5B 00 00 00 00 00 00 00 
   240)      4727.3  Rx     00000108  8  41 32 33 31 51 41 30 30 
   241)      4766.6  Rx     0000011D  8  5B 00 00 00 00 00 00 00 
   242)      4766.9  Rx     00000108  8  41 32 33 31 51 41 30 30 
   243)      4806.2  Rx     0000011D  8  5B 00 00 00 00 00 00 00 
   244)      4806.5  Rx     00000108  8  41 32 33 31 51 41 30 30 
   245)      4845.9  Rx     0000011D  8  5B 00 00 00 00 00 00 00 
   246)      4846.2  Rx     00000108  8  41 32 33 31 51 41 30 30 
   247)      4885.6  Rx     0000011D  8  5B 00 00 00 00 00 00 00 
   248)      4885.8  Rx     00000108  8  41 32 33 31 51 41 30 30 
   249)      4925.2  Rx     0000011D  8  5B 00 00 00 00 00 00 00 
   250)      4925.5  Rx     00000108  8  41 32 33 31 51 41 30 30 
   251)      4964.8  Rx     0000011D  8  5B 00 00 00 00 00 00 00 
   252)      4965.1  Rx     00000108  8  41 32 33 31 51 41 30 30 
   253)      5004.5  Rx     0000011D  8  5B 00 00 00 00 00 00 00 
   254)      5004.8  Rx     00000108  8  41 32 33 31 51 41 30 30 
   255)      5044.1  Rx     0000011D  8  5B 00 00 00 00 00 00 00 
   256)      5044.4  Rx     00000108  8  41 32 33 31 51 41 30 30 
   257)      5083.8  Rx     0000011D  8  5B 00 00 00 00 00 00 00 
   258)      5084.0  Rx     00000108  8  41 32 33 31 51 41 30 30 
   259)      5123.4  Rx     0000011D  8  5B 00 00 00 00 00 00 00 
   260)      5123.7  Rx     00000108  8  41 32 33 31 51 41 30 30 
   261)      5163.1  Rx     0000011D  8  5B 00 00 00 00 00 00 00 
   262)      5163.3  Rx     00000108  8  41 32 33 31 51 41 30 30 
   263)      5202.7  Rx     0000011D  8  5B 00 00 00 00 00 00 00 
   264)      5202.9  Rx     00000108  8  41 32 33 31 51 41 30 30 
   265)      5242.3  Rx     0000011D  8  5B 00 00 00 00 00 00 00 
   266)      5242.6  Rx     00000108  8  41 32 33 31 51 41 30 30 
   267)      5282.0  Rx     0000011D  8  5B 00 00 00 00 00 00 00 
   268)      5282.3  Rx     00000108  8  41 32 33 31 51 41 30 30 
   269)      5321.6  Rx     0000011D  8  5B 00 00 00 00 00 00 00 
   270)      5321.9  Rx     00000108  8  41 32 33 31 51 41 30 30 
   271)      5361.3  Rx     0000011D  8  5B 00 00 00 00 00 00 00 
   272)      5361.6  Rx     00000108  8  41 32 33 31 51 41 30 30 
   273)      5400.9  Rx     0000011D  8  5B 00 00 00 00 00 00 00 
   274)      5401.2  Rx     00000108  8  41 32 33 31 51 41 30 30 
   275)      5440.6  Rx     0000011D  8  5B 00 00 00 00 00 00 00 
   276)      5440.8  Rx     00000108  8  41 32 33 31 51 41 30 30 
   277)      5480.2  Rx     0000011D  8  5B 00 00 00 00 00 00 00 
   278)      5480.5  Rx     00000108  8  41 32 33 31 51 41 30 30 
   279)      5519.9  Rx     0000011D  8  5B 00 00 00 00 00 00 00 
   280)      5520.1  Rx     00000108  8  41 32 33 31 51 41 30 30 
   281)      5559.5  Rx     0000011D  8  5B 00 00 00 00 00 00 00 
   282)      5559.8  Rx     00000108  8  41 32 33 31 51 41 30 30 
   283)      5599.1  Rx     0000011D  8  5B 00 00 00 00 00 00 00 
   284)      5599.4  Rx     00000108  8  41 32 33 31 51 41 30 30 
   285)      5638.8  Rx     0000011D  8  5B 00 00 00 00 00 00 00 
   286)      5639.1  Rx     00000108  8  41 32 33 31 51 41 30 30 
   287)      5678.4  Rx     0000011D  8  5B 00 00 00 00 00 00 00 
   288)      5678.7  Rx     00000108  8  41 32 33 31 51 41 30 30 
   289)      5718.0  Rx     0000011D  8  5B 00 00 00 00 00 00 00 
   290)      5718.3  Rx     00000108  8  41 32 33 31 51 41 30 30 
   291)      5757.7  Rx     0000011D  8  5B 00 00 00 00 00 00 00 
   292)      5758.0  Rx     00000108  8  41 32 33 31 51 41 30 30 
   293)      5797.3  Rx     0000011D  8  5B 00 00 00 00 00 00 00 
   294)      5797.6  Rx     00000108  8  41 32 33 31 51 41 30 30 
   295)      5836.9  Rx     0000011D  8  5B 00 00 00 00 00 00 00 
   296)      5837.2  Rx     00000108  8  41 32 33 31 51 41 30 30 
   297)      5876.6  Rx     0000011D  8  5B 00 00 00 00 00 00 00 
   298)      5876.9  Rx     00000108  8  41 32 33 31 51 41 30 30 
   299)      5916.3  Rx     0000011D  8  5B 00 00 00 00 00 00 00 
   300)      5916.5  Rx     00000108  8  41 32 33 31 51 41 30 30 
   301)      5955.9  Rx     0000011D  8  5B 00 00 00 00 00 00 00 
   302)      5956.2  Rx     00000108  8  41 32 33 31 51 41 30 30 
   303)      5995.5  Rx     0000011D  8  5B 00 00 00 00 00 00 00 
   304)      5995.8  Rx     00000108  8  41 32 33 31 51 41 30 30 
   305)      6035.1  Rx     0000011D  8  5B 00 00 00 00 00 00 00 
   306)      6035.4  Rx     00000108  8  41 32 33 31 51 41 30 30 
   307)      6074.8  Rx     0000011D  8  5B 00 00 00 00 00 00 00 
   308)      6075.1  Rx     00000108  8  41 32 33 31 51 41 30 30 
   309)      6114.4  Rx     0000011D  8  5B 00 00 00 00 00 00 00 
   310)      6114.7  Rx     00000108  8  41 32 33 31 51 41 30 30 
   311)      6154.1  Rx     0000011D  8  5B 00 00 00 00 00 00 00 
   312)      6154.3  Rx     00000108  8  41 32 33 31 51 41 30 30 
   313)      6193.7  Rx     0000011D  8  5B 00 00 00 00 00 00 00 
   314)      6194.0  Rx     00000108  8  41 32 33 31 51 41 30 30 
   315)      6233.4  Rx     0000011D  8  5B 00 00 00 00 00 00 00 
   316)      6233.6  Rx     00000108  8  41 32 33 31 51 41 30 30 
   317)      6273.0  Rx     0000011D  8  5B 00 00 00 00 00 00 00 
   318)      6273.3  Rx     00000108  8  41 32 33 31 51 41 30 30 
   319)      6312.6  Rx     0000011D  8  5B 00 00 00 00 00 00 00 
   320)      6312.9  Rx     00000108  8  41 32 33 31 51 41 30 30 
   321)      6352.3  Rx     0000011D  8  5B 00 00 00 00 00 00 00 
   322)      6352.6  Rx     00000108  8  41 32 33 31 51 41 30 30 
   323)      6391.9  Rx     0000011D  8  5B 00 00 00 00 00 00 00 
   324)      6392.2  Rx     00000108  8  41 32 33 31 51 41 30 30 
   325)      6431.6  Rx     0000011D  8  5B 00 00 00 00 00 00 00 
   326)      6431.8  Rx     00000108  8  41 32 33 31 51 41 30 30 
   327)      6471.2  Rx     0000011D  8  5B 00 00 00 00 00 00 00 
   328)      6471.5  Rx     00000108  8  41 32 33 31 51 41 30 30 
   329)      6510.8  Rx     0000011D  8  5B 00 00 00 00 00 00 00 
   330)      6511.1  Rx     00000108  8  41 32 33 31 51 41 30 30 
   331)      6550.5  Rx     0000011D  8  5B 00 00 00 00 00 00 00 
   332)      6550.7  Rx     00000108  8  41 32 33 31 51 41 30 30 
   333)      6590.1  Rx     0000011D  8  5B 00 00 00 00 00 00 00 
   334)      6590.4  Rx     00000108  8  41 32 33 31 51 41 30 30 
   335)      6629.8  Rx     0000011D  8  5B 00 00 00 00 00 00 00 
   336)      6630.1  Rx     00000108  8  41 32 33 31 51 41 30 30 
   337)      6669.4  Rx     0000011D  8  5B 00 00 00 00 00 00 00 
   338)      6669.7  Rx     00000108  8  41 32 33 31 51 41 30 30 
   339)      6709.0  Rx     0000011D  8  5B 00 00 00 00 00 00 00 
   340)      6709.3  Rx     00000108  8  41 32 33 31 51 41 30 30 
   341)      6748.7  Rx     0000011D  8  5B 00 00 00 00 00 00 00 
   342)      6749.0  Rx     00000108  8  41 32 33 31 51 41 30 30 
   343)      6788.3  Rx     0000011D  8  5B 00 00 00 00 00 00 00 
   344)      6788.6  Rx     00000108  8  41 32 33 31 51 41 30 30 
   345)      6827.9  Rx     0000011D  8  5B 00 00 00 00 00 00 00 
   346)      6828.2  Rx     00000108  8  41 32 33 31 51 41 30 30 
   347)      6867.6  Rx     0000011D  8  5B 00 00 00 00 00 00 00 
   348)      6867.9  Rx     00000108  8  41 32 33 31 51 41 30 30 
   349)      6907.2  Rx     0000011D  8  5B 00 00 00 00 00 00 00 
   350)      6907.5  Rx     00000108  8  41 32 33 31 51 41 30 30 
   351)      6946.9  Rx     0000011D  8  5B 00 00 00 00 00 00 00 
   352)      6947.1  Rx     00000108  8  41 32 33 31 51 41 30 30 
   353)      6986.5  Rx     0000011D  8  5B 00 00 00 00 00 00 00 
   354)      6986.8  Rx     00000108  8  41 32 33 31 51 41 30 30 
   355)      7026.2  Rx     0000011D  8  5B 00 00 00 00 00 00 00 
   356)      7026.4  Rx     00000108  8  41 32 33 31 51 41 30 30 
   357)      7065.8  Rx     0000011D  8  5B 00 00 00 00 00 00 00 
   358)      7066.1  Rx     00000108  8  41 32 33 31 51 41 30 30 
   359)      7105.4  Rx     0000011D  8  5B 00 00 00 00 00 00 00 
   360)      7105.7  Rx     00000108  8  41 32 33 31 51 41 30 30 
   361)      7145.1  Rx     0000011D  8  5B 00 00 00 00 00 00 00 
   362)      7145.4  Rx     00000108  8  41 32 33 31 51 41 30 30 
   363)      7184.7  Rx     0000011D  8  5B 00 00 00 00 00 00 00 
   364)      7185.0  Rx     00000108  8  41 32 33 31 51 41 30 30 
   365)      7224.3  Rx     0000011D  8  5B 00 00 00 00 00 00 00 
   366)      7224.6  Rx     00000108  8  41 32 33 31 51 41 30 30 
   367)      7264.0  Rx     0000011D  8  5B 00 00 00 00 00 00 00 
   368)      7264.3  Rx     00000108  8  41 32 33 31 51 41 30 30 
   369)      7303.6  Rx     0000011D  8  5B 00 00 00 00 00 00 00 
   370)      7303.9  Rx     00000108  8  41 32 33 31 51 41 30 30 
   371)      7343.3  Rx     0000011D  8  5B 00 00 00 00 00 00 00 
   372)      7343.6  Rx     00000108  8  41 32 33 31 51 41 30 30 
   373)      7382.9  Rx     0000011D  8  5B 00 00 00 00 00 00 00 
   374)      7383.2  Rx     00000108  8  41 32 33 31 51 41 30 30 
   375)      7422.6  Rx     0000011D  8  5B 00 00 00 00 00 00 00 
   376)      7422.9  Rx     00000108  8  41 32 33 31 51 41 30 30 
   377)      7462.2  Rx     0000011D  8  5B 00 00 00 00 00 00 00 
   378)      7462.5  Rx     00000108  8  41 32 33 31 51 41 30 30 
