     1)        32.9  Rx     0000011D  8  5B 00 00 00 00 00 00 00 
     2)        33.1  Rx     00000108  8  41 32 33 31 51 41 30 30 
     3)        72.5  Rx     0000011D  8  5B 00 00 00 00 00 00 00 
     4)        72.8  Rx     00000108  8  41 32 33 31 51 41 30 30 
     5)       112.3  Rx     0000011D  8  5B 00 00 00 00 00 00 00 
     6)       112.6  Rx     00000108  8  41 32 33 31 51 41 30 30 
     7)       152.0  Rx     0000011D  8  5B 00 00 00 00 00 00 00 
     8)       152.2  Rx     00000108  8  41 32 33 31 51 41 30 30 
     9)       191.7  Rx     0000011D  8  5B 00 00 00 00 00 00 00 
    10)       192.0  Rx     00000108  8  41 32 33 31 51 41 30 30 
    11)       231.4  Rx     0000011D  8  5B 00 00 00 00 00 00 00 
    12)       231.7  Rx     00000108  8  41 32 33 31 51 41 30 30 
    13)       271.1  Rx     0000011D  8  5B 00 00 00 00 00 00 00 
    14)       271.4  Rx     00000108  8  41 32 33 31 51 41 30 30 
    15)       310.8  Rx     0000011D  8  5B 00 00 00 00 00 00 00 
    16)       311.1  Rx     00000108  8  41 32 33 31 51 41 30 30 
    17)       350.5  Rx     0000011D  8  5B 00 00 00 00 00 00 00 
    18)       350.8  Rx     00000108  8  41 32 33 31 51 41 30 30 
    19)       390.3  Rx     0000011D  8  5B 00 00 00 00 00 00 00 
    20)       390.5  Rx     00000108  8  41 32 33 31 51 41 30 30 
    21)       429.9  Rx     0000011D  8  5B 00 00 00 00 00 00 00 
    22)       430.2  Rx     00000108  8  41 32 33 31 51 41 30 30 
    23)       469.7  Rx     0000011D  8  5B 00 00 00 00 00 00 00 
    24)       470.0  Rx     00000108  8  41 32 33 31 51 41 30 30 
    25)       509.4  Rx     0000011D  8  5B 00 00 00 00 00 00 00 
    26)       509.6  Rx     00000108  8  41 32 33 31 51 41 30 30 
    27)       549.1  Rx     0000011D  8  5B 00 00 00 00 00 00 00 
    28)       549.4  Rx     00000108  8  41 32 33 31 51 41 30 30 
    29)       588.8  Rx     0000011D  8  5B 00 00 00 00 00 00 00 
    30)       589.0  Rx     00000108  8  41 32 33 31 51 41 30 30 
    31)       628.5  Rx     0000011D  8  5B 00 00 00 00 00 00 00 
    32)       628.8  Rx     00000108  8  41 32 33 31 51 41 30 30 
    33)       668.2  Rx     0000011D  8  5B 00 00 00 00 00 00 00 
    34)       668.5  Rx     00000108  8  41 32 33 31 51 41 30 30 
    35)       707.9  Rx     0000011D  8  5B 00 00 00 00 00 00 00 
    36)       708.2  Rx     00000108  8  41 32 33 31 51 41 30 30 
    37)       747.6  Rx     0000011D  8  5B 00 00 00 00 00 00 00 
    38)       747.9  Rx     00000108  8  41 32 33 31 51 41 30 30 
    39)       787.3  Rx     0000011D  8  5B 00 00 00 00 00 00 00 
    40)       787.6  Rx     00000108  8  41 32 33 31 51 41 30 30 
    41)       827.0  Rx     0000011D  8  5B 00 00 00 00 00 00 00 
    42)       827.3  Rx     00000108  8  41 32 33 31 51 41 30 30 
    43)       866.7  Rx     0000011D  8  5B 00 00 00 00 00 00 00 
    44)       867.0  Rx     00000108  8  41 32 33 31 51 41 30 30 
    45)       906.4  Rx     0000011D  8  5B 00 00 00 00 00 00 00 
    46)       906.7  Rx     00000108  8  41 32 33 31 51 41 30 30 
    47)       946.1  Rx     0000011D  8  5B 00 00 00 00 00 00 00 
    48)       946.4  Rx     00000108  8  41 32 33 31 51 41 30 30 
    49)       985.8  Rx     0000011D  8  5B 00 00 00 00 00 00 00 
    50)       986.1  Rx     00000108  8  41 32 33 31 51 41 30 30 
    51)      1025.5  Rx     0000011D  8  5B 00 00 00 00 00 00 00 
    52)      1025.8  Rx     00000108  8  41 32 33 31 51 41 30 30 
    53)      1065.2  Rx     0000011D  8  5B 00 00 00 00 00 00 00 
    54)      1065.5  Rx     00000108  8  41 32 33 31 51 41 30 30 
    55)      1105.0  Rx     0000011D  8  5B 00 00 00 00 00 00 00 
    56)      1105.2  Rx     00000108  8  41 32 33 31 51 41 30 30 
    57)      1144.6  Rx     0000011D  8  5B 00 00 00 00 00 00 00 
    58)      1144.9  Rx     00000108  8  41 32 33 31 51 41 30 30 
    59)      1184.4  Rx     0000011D  8  5B 00 00 00 00 00 00 00 
    60)      1184.6  Rx     00000108  8  41 32 33 31 51 41 30 30 
    61)      1224.1  Rx     0000011D  8  5B 00 00 00 00 00 00 00 
    62)      1224.4  Rx     00000108  8  41 32 33 31 51 41 30 30 
    63)      1263.8  Rx     0000011D  8  5B 00 00 00 00 00 00 00 
    64)      1264.0  Rx     00000108  8  41 32 33 31 51 41 30 30 
    65)      1303.5  Rx     0000011D  8  5B 00 00 00 00 00 00 00 
    66)      1303.8  Rx     00000108  8  41 32 33 31 51 41 30 30 
    67)      1343.2  Rx     0000011D  8  5B 00 00 00 00 00 00 00 
    68)      1343.5  Rx     00000108  8  41 32 33 31 51 41 30 30 
    69)      1382.9  Rx     0000011D  8  5B 00 00 00 00 00 00 00 
    70)      1383.2  Rx     00000108  8  41 32 33 31 51 41 30 30 
    71)      1422.6  Rx     0000011D  8  5B 00 00 00 00 00 00 00 
    72)      1422.9  Rx     00000108  8  41 32 33 31 51 41 30 30 
    73)      1462.3  Rx     0000011D  8  5B 00 00 00 00 00 00 00 
    74)      1462.6  Rx     00000108  8  41 32 33 31 51 41 30 30 
    75)      1502.0  Rx     0000011D  8  5B 00 00 00 00 00 00 00 
    76)      1502.3  Rx     00000108  8  41 32 33 31 51 41 30 30 
    77)      1541.7  Rx     0000011D  8  5B 00 00 00 00 00 00 00 
    78)      1542.0  Rx     00000108  8  41 32 33 31 51 41 30 30 
    79)      1581.4  Rx     0000011D  8  5B 00 00 00 00 00 00 00 
    80)      1581.7  Rx     00000108  8  41 32 33 31 51 41 30 30 
    81)      1621.1  Rx     0000011D  8  5B 00 00 00 00 00 00 00 
    82)      1621.4  Rx     00000108  8  41 32 33 31 51 41 30 30 
    83)      1660.8  Rx     0000011D  8  5B 00 00 00 00 00 00 00 
    84)      1661.1  Rx     00000108  8  41 32 33 31 51 41 30 30 
    85)      1700.5  Rx     0000011D  8  5B 00 00 00 00 00 00 00 
    86)      1700.8  Rx     00000108  8  41 32 33 31 51 41 30 30 
    87)      1740.2  Rx     0000011D  8  5B 00 00 00 00 00 00 00 
    88)      1740.5  Rx     00000108  8  41 32 33 31 51 41 30 30 
    89)      1779.9  Rx     0000011D  8  5B 00 00 00 00 00 00 00 
    90)      1780.2  Rx     00000108  8  41 32 33 31 51 41 30 30 
    91)      1819.6  Rx     0000011D  8  5B 00 00 00 00 00 00 00 
    92)      1819.9  Rx     00000108  8  41 32 33 31 51 41 30 30 
    93)      1859.3  Rx     0000011D  8  5B 00 00 00 00 00 00 00 
    94)      1859.6  Rx     00000108  8  41 32 33 31 51 41 30 30 
    95)      1899.0  Rx     0000011D  8  5B 00 00 00 00 00 00 00 
    96)      1899.3  Rx     00000108  8  41 32 33 31 51 41 30 30 
    97)      1938.7  Rx     0000011D  8  5B 00 00 00 00 00 00 00 
    98)      1939.0  Rx     00000108  8  41 32 33 31 51 41 30 30 
    99)      1978.4  Rx     0000011D  8  5B 00 00 00 00 00 00 00 
   100)      1978.7  Rx     00000108  8  41 32 33 31 51 41 30 30 
   101)      2018.2  Rx     0000011D  8  5B 00 00 00 00 00 00 00 
   102)      2018.4  Rx     00000108  8  41 32 33 31 51 41 30 30 
   103)      2057.8  Rx     0000011D  8  5B 00 00 00 00 00 00 00 
   104)      2058.1  Rx     00000108  8  41 32 33 31 51 41 30 30 
   105)      2097.6  Rx     0000011D  8  5B 00 00 00 00 00 00 00 
   106)      2097.8  Rx     00000108  8  41 32 33 31 51 41 30 30 
   107)      2137.2  Rx     0000011D  8  5B 00 00 00 00 00 00 00 
   108)      2137.5  Rx     00000108  8  41 32 33 31 51 41 30 30 
   109)      2177.0  Rx     0000011D  8  5B 00 00 00 00 00 00 00 
   110)      2177.3  Rx     00000108  8  41 32 33 31 51 41 30 30 
   111)      2216.7  Rx     0000011D  8  5B 00 00 00 00 00 00 00 
   112)      2216.9  Rx     00000108  8  41 32 33 31 51 41 30 30 
   113)      2256.4  Rx     0000011D  8  5B 00 00 00 00 00 00 00 
   114)      2256.7  Rx     00000108  8  41 32 33 31 51 41 30 30 
   115)      2296.1  Rx     0000011D  8  5B 00 00 00 00 00 00 00 
   116)      2296.3  Rx     00000108  8  41 32 33 31 51 41 30 30 
   117)      2335.8  Rx     0000011D  8  5B 00 00 00 00 00 00 00 
   118)      2336.1  Rx     00000108  8  41 32 33 31 51 41 30 30 
   119)      2375.5  Rx     0000011D  8  5B 00 00 00 00 00 00 00 
   120)      2375.8  Rx     00000108  8  41 32 33 31 51 41 30 30 
   121)      2415.2  Rx     0000011D  8  5B 00 00 00 00 00 00 00 
   122)      2415.5  Rx     00000108  8  41 32 33 31 51 41 30 30 
   123)      2454.9  Rx     0000011D  8  5B 00 00 00 00 00 00 00 
   124)      2455.2  Rx     00000108  8  41 32 33 31 51 41 30 30 
   125)      2494.6  Rx     0000011D  8  5B 00 00 00 00 00 00 00 
   126)      2494.9  Rx     00000108  8  41 32 33 31 51 41 30 30 
   127)      2534.3  Rx     0000011D  8  5B 00 00 00 00 00 00 00 
   128)      2534.6  Rx     00000108  8  41 32 33 31 51 41 30 30 
   129)      2574.0  Rx     0000011D  8  5B 00 00 00 00 00 00 00 
   130)      2574.3  Rx     00000108  8  41 32 33 31 51 41 30 30 
   131)      2613.7  Rx     0000011D  8  5B 00 00 00 00 00 00 00 
   132)      2614.0  Rx     00000108  8  41 32 33 31 51 41 30 30 
   133)      2653.4  Rx     0000011D  8  5B 00 00 00 00 00 00 00 
   134)      2653.7  Rx     00000108  8  41 32 33 31 51 41 30 30 
   135)      2693.1  Rx     0000011D  8  5B 00 00 00 00 00 00 00 
   136)      2693.4  Rx     00000108  8  41 32 33 31 51 41 30 30 
   137)      2732.8  Rx     0000011D  8  5B 00 00 00 00 00 00 00 
   138)      2733.1  Rx     00000108  8  41 32 33 31 51 41 30 30 
   139)      2772.5  Rx     0000011D  8  5B 00 00 00 00 00 00 00 
   140)      2772.8  Rx     00000108  8  41 32 33 31 51 41 30 30 
   141)      2812.2  Rx     0000011D  8  5B 00 00 00 00 00 00 00 
   142)      2812.5  Rx     00000108  8  41 32 33 31 51 41 30 30 
   143)      2851.9  Rx     0000011D  8  5B 00 00 00 00 00 00 00 
   144)      2852.2  Rx     00000108  8  41 32 33 31 51 41 30 30 
   145)      2891.6  Rx     0000011D  8  5B 00 00 00 00 00 00 00 
   146)      2891.9  Rx     00000108  8  41 32 33 31 51 41 30 30 
   147)      2931.3  Rx     0000011D  8  5B 00 00 00 00 00 00 00 
   148)      2931.6  Rx     00000108  8  41 32 33 31 51 41 30 30 
   149)      2971.1  Rx     0000011D  8  5B 00 00 00 00 00 00 00 
   150)      2971.3  Rx     00000108  8  41 32 33 31 51 41 30 30 
   151)      3010.7  Rx     0000011D  8  5B 00 00 00 00 00 00 00 
   152)      3011.0  Rx     00000108  8  41 32 33 31 51 41 30 30 
   153)      3050.5  Rx     0000011D  8  5B 00 00 00 00 00 00 00 
   154)      3050.8  Rx     00000108  8  41 32 33 31 51 41 30 30 
   155)      3090.1  Rx     0000011D  8  5B 00 00 00 00 00 00 00 
   156)      3090.4  Rx     00000108  8  41 32 33 31 51 41 30 30 
   157)      3129.9  Rx     0000011D  8  5B 00 00 00 00 00 00 00 
   158)      3130.2  Rx     00000108  8  41 32 33 31 51 41 30 30 
   159)      3169.6  Rx     0000011D  8  5B 00 00 00 00 00 00 00 
   160)      3169.8  Rx     00000108  8  41 32 33 31 51 41 30 30 
   161)      3209.2  Rx     0000011D  8  5B 00 00 00 00 00 00 00 
   162)      3209.5  Rx     00000108  8  41 32 33 31 51 41 30 30 
   163)      3248.9  Rx     0000011D  8  5B 00 00 00 00 00 00 00 
   164)      3249.2  Rx     00000108  8  41 32 33 31 51 41 30 30 
   165)      3288.7  Rx     0000011D  8  5B 00 00 00 00 00 00 00 
   166)      3288.9  Rx     00000108  8  41 32 33 31 51 41 30 30 
   167)      3328.3  Rx     0000011D  8  5B 00 00 00 00 00 00 00 
   168)      3328.6  Rx     00000108  8  41 32 33 31 51 41 30 30 
   169)      3368.1  Rx     0000011D  8  5B 00 00 00 00 00 00 00 
   170)      3368.3  Rx     00000108  8  41 32 33 31 51 41 30 30 
   171)      3407.7  Rx     0000011D  8  5B 00 00 00 00 00 00 00 
   172)      3408.0  Rx     00000108  8  41 32 33 31 51 41 30 30 
   173)      3447.5  Rx     0000011D  8  5B 00 00 00 00 00 00 00 
   174)      3447.7  Rx     00000108  8  41 32 33 31 51 41 30 30 
   175)      3487.1  Rx     0000011D  8  5B 00 00 00 00 00 00 00 
   176)      3487.4  Rx     00000108  8  41 32 33 31 51 41 30 30 
   177)      3526.9  Rx     0000011D  8  5B 00 00 00 00 00 00 00 
   178)      3527.1  Rx     00000108  8  41 32 33 31 51 41 30 30 
   179)      3566.6  Rx     0000011D  8  5B 00 00 00 00 00 00 00 
   180)      3566.8  Rx     00000108  8  41 32 33 31 51 41 30 30 
   181)      3606.3  Rx     0000011D  8  5B 00 00 00 00 00 00 00 
   182)      3606.6  Rx     00000108  8  41 32 33 31 51 41 30 30 
   183)      3646.0  Rx     0000011D  8  5B 00 00 00 00 00 00 00 
   184)      3646.2  Rx     00000108  8  41 32 33 31 51 41 30 30 
   185)      3685.7  Rx     0000011D  8  5B 00 00 00 00 00 00 00 
   186)      3686.0  Rx     00000108  8  41 32 33 31 51 41 30 30 
   187)      3725.4  Rx     0000011D  8  5B 00 00 00 00 00 00 00 
   188)      3725.6  Rx     00000108  8  41 32 33 31 51 41 30 30 
   189)      3765.1  Rx     0000011D  8  5B 00 00 00 00 00 00 00 
   190)      3765.4  Rx     00000108  8  41 32 33 31 51 41 30 30 
   191)      3804.8  Rx     0000011D  8  5B 00 00 00 00 00 00 00 
   192)      3805.1  Rx     00000108  8  41 32 33 31 51 41 30 30 
   193)      3844.5  Rx     0000011D  8  5B 00 00 00 00 00 00 00 
   194)      3844.8  Rx     00000108  8  41 32 33 31 51 41 30 30 
   195)      3884.2  Rx     0000011D  8  5B 00 00 00 00 00 00 00 
   196)      3884.5  Rx     00000108  8  41 32 33 31 51 41 30 30 
   197)      3923.9  Rx     0000011D  8  5B 00 00 00 00 00 00 00 
   198)      3924.2  Rx     00000108  8  41 32 33 31 51 41 30 30 
   199)      3963.6  Rx     0000011D  8  5B 00 00 00 00 00 00 00 
   200)      3963.9  Rx     00000108  8  41 32 33 31 51 41 30 30 
   201)      4003.3  Rx     0000011D  8  5B 00 00 00 00 00 00 00 
   202)      4003.6  Rx     00000108  8  41 32 33 31 51 41 30 30 
   203)      4043.0  Rx     0000011D  8  5B 00 00 00 00 00 00 00 
   204)      4043.3  Rx     00000108  8  41 32 33 31 51 41 30 30 
   205)      4082.7  Rx     0000011D  8  5B 00 00 00 00 00 00 00 
   206)      4083.0  Rx     00000108  8  41 32 33 31 51 41 30 30 
   207)      4122.4  Rx     0000011D  8  5B 00 00 00 00 00 00 00 
   208)      4122.7  Rx     00000108  8  41 32 33 31 51 41 30 30 
   209)      4162.1  Rx     0000011D  8  5B 00 00 00 00 00 00 00 
   210)      4162.4  Rx     00000108  8  41 32 33 31 51 41 30 30 
   211)      4201.8  Rx     0000011D  8  5B 00 00 00 00 00 00 00 
   212)      4202.1  Rx     00000108  8  41 32 33 31 51 41 30 30 
   213)      4241.5  Rx     0000011D  8  5B 00 00 00 00 00 00 00 
   214)      4241.8  Rx     00000108  8  41 32 33 31 51 41 30 30 
   215)      4281.2  Rx     0000011D  8  5B 00 00 00 00 00 00 00 
   216)      4281.5  Rx     00000108  8  41 32 33 31 51 41 30 30 
   217)      4320.9  Rx     0000011D  8  5B 00 00 00 00 00 00 00 
   218)      4321.2  Rx     00000108  8  41 32 33 31 51 41 30 30 
   219)      4360.6  Rx     0000011D  8  5B 00 00 00 00 00 00 00 
   220)      4360.9  Rx     00000108  8  41 32 33 31 51 41 30 30 
   221)      4400.3  Rx     0000011D  8  5B 00 00 00 00 00 00 00 
   222)      4400.6  Rx     00000108  8  41 32 33 31 51 41 30 30 
   223)      4440.0  Rx     0000011D  8  5B 00 00 00 00 00 00 00 
   224)      4440.3  Rx     00000108  8  41 32 33 31 51 41 30 30 
   225)      4479.7  Rx     0000011D  8  5B 00 00 00 00 00 00 00 
   226)      4480.0  Rx     00000108  8  41 32 33 31 51 41 30 30 
   227)      4519.4  Rx     0000011D  8  5B 00 00 00 00 00 00 00 
   228)      4519.7  Rx     00000108  8  41 32 33 31 51 41 30 30 
   229)      4559.1  Rx     0000011D  8  5B 00 00 00 00 00 00 00 
   230)      4559.4  Rx     00000108  8  41 32 33 31 51 41 30 30 
   231)      4598.9  Rx     0000011D  8  5B 00 00 00 00 00 00 00 
   232)      4599.1  Rx     00000108  8  41 32 33 31 51 41 30 30 
   233)      4638.5  Rx     0000011D  8  5B 00 00 00 00 00 00 00 
   234)      4638.8  Rx     00000108  8  41 32 33 31 51 41 30 30 
   235)      4678.3  Rx     0000011D  8  5B 00 00 00 00 00 00 00 
   236)      4678.5  Rx     00000108  8  41 32 33 31 51 41 30 30 
   237)      4717.9  Rx     0000011D  8  5B 00 00 00 00 00 00 00 
   238)      4718.2  Rx     00000108  8  41 32 33 31 51 41 30 30 
   239)      4757.7  Rx     0000011D  8  5B 00 00 00 00 00 00 00 
   240)      4758.0  Rx     00000108  8  41 32 33 31 51 41 30 30 
   241)      4797.3  Rx     0000011D  8  5B 00 00 00 00 00 00 00 
   242)      4797.6  Rx     00000108  8  41 32 33 31 51 41 30 30 
   243)      4837.1  Rx     0000011D  8  5B 00 00 00 00 00 00 00 
   244)      4837.4  Rx     00000108  8  41 32 33 31 51 41 30 30 
   245)      4876.8  Rx     0000011D  8  5B 00 00 00 00 00 00 00 
   246)      4877.0  Rx     00000108  8  41 32 33 31 51 41 30 30 
   247)      4916.5  Rx     0000011D  8  5B 00 00 00 00 00 00 00 
   248)      4916.8  Rx     00000108  8  41 32 33 31 51 41 30 30 
   249)      4956.2  Rx     0000011D  8  5B 00 00 00 00 00 00 00 
   250)      4956.4  Rx     00000108  8  41 32 33 31 51 41 30 30 
   251)      4995.9  Rx     0000011D  8  5B 00 00 00 00 00 00 00 
   252)      4996.2  Rx     00000108  8  41 32 33 31 51 41 30 30 
   253)      5035.6  Rx     0000011D  8  5B 00 00 00 00 00 00 00 
   254)      5035.9  Rx     00000108  8  41 32 33 31 51 41 30 30 
   255)      5075.3  Rx     0000011D  8  5B 00 00 00 00 00 00 00 
   256)      5075.6  Rx     00000108  8  41 32 33 31 51 41 30 30 
   257)      5115.0  Rx     0000011D  8  5B 00 00 00 00 00 00 00 
   258)      5115.3  Rx     00000108  8  41 32 33 31 51 41 30 30 
   259)      5154.7  Rx     0000011D  8  5B 00 00 00 00 00 00 00 
   260)      5155.0  Rx     00000108  8  41 32 33 31 51 41 30 30 
   261)      5194.4  Rx     0000011D  8  5B 00 00 00 00 00 00 00 
   262)      5194.7  Rx     00000108  8  41 32 33 31 51 41 30 30 
   263)      5234.1  Rx     0000011D  8  5B 00 00 00 00 00 00 00 
   264)      5234.4  Rx     00000108  8  41 32 33 31 51 41 30 30 
   265)      5273.8  Rx     0000011D  8  5B 00 00 00 00 00 00 00 
   266)      5274.1  Rx     00000108  8  41 32 33 31 51 41 30 30 
   267)      5313.5  Rx     0000011D  8  5B 00 00 00 00 00 00 00 
   268)      5313.8  Rx     00000108  8  41 32 33 31 51 41 30 30 
   269)      5353.2  Rx     0000011D  8  5B 00 00 00 00 00 00 00 
   270)      5353.5  Rx     00000108  8  41 32 33 31 51 41 30 30 
   271)      5392.9  Rx     0000011D  8  5B 00 00 00 00 00 00 00 
   272)      5393.2  Rx     00000108  8  41 32 33 31 51 41 30 30 
   273)      5432.6  Rx     0000011D  8  5B 00 00 00 00 00 00 00 
   274)      5432.9  Rx     00000108  8  41 32 33 31 51 41 30 30 
   275)      5472.3  Rx     0000011D  8  5B 00 00 00 00 00 00 00 
   276)      5472.6  Rx     00000108  8  41 32 33 31 51 41 30 30 
   277)      5512.0  Rx     0000011D  8  5B 00 00 00 00 00 00 00 
   278)      5512.3  Rx     00000108  8  41 32 33 31 51 41 30 30 
   279)      5551.7  Rx     0000011D  8  5B 00 00 00 00 00 00 00 
   280)      5552.0  Rx     00000108  8  41 32 33 31 51 41 30 30 
   281)      5591.4  Rx     0000011D  8  5B 00 00 00 00 00 00 00 
   282)      5591.7  Rx     00000108  8  41 32 33 31 51 41 30 30 
   283)      5631.1  Rx     0000011D  8  5B 00 00 00 00 00 00 00 
   284)      5631.4  Rx     00000108  8  41 32 33 31 51 41 30 30 
   285)      5670.8  Rx     0000011D  8  5B 00 00 00 00 00 00 00 
   286)      5671.1  Rx     00000108  8  41 32 33 31 51 41 30 30 
   287)      5710.6  Rx     0000011D  8  5B 00 00 00 00 00 00 00 
   288)      5710.8  Rx     00000108  8  41 32 33 31 51 41 30 30 
   289)      5750.2  Rx     0000011D  8  5B 00 00 00 00 00 00 00 
   290)      5750.5  Rx     00000108  8  41 32 33 31 51 41 30 30 
   291)      5790.0  Rx     0000011D  8  5B 00 00 00 00 00 00 00 
   292)      5790.2  Rx     00000108  8  41 32 33 31 51 41 30 30 
   293)      5829.6  Rx     0000011D  8  5B 00 00 00 00 00 00 00 
   294)      5829.9  Rx     00000108  8  41 32 33 31 51 41 30 30 
   295)      5869.4  Rx     0000011D  8  5B 00 00 00 00 00 00 00 
   296)      5869.7  Rx     00000108  8  41 32 33 31 51 41 30 30 
   297)      5909.1  Rx     0000011D  8  5B 00 00 00 00 00 00 00 
   298)      5909.3  Rx     00000108  8  41 32 33 31 51 41 30 30 
   299)      5948.8  Rx     0000011D  8  5B 00 00 00 00 00 00 00 
   300)      5949.1  Rx     00000108  8  41 32 33 31 51 41 30 30 
   301)      5988.5  Rx     0000011D  8  5B 00 00 00 00 00 00 00 
   302)      5988.8  Rx     00000108  8  41 32 33 31 51 41 30 30 
   303)      6028.2  Rx     0000011D  8  5B 00 00 00 00 00 00 00 
   304)      6028.5  Rx     00000108  8  41 32 33 31 51 41 30 30 
   305)      6067.9  Rx     0000011D  8  5B 00 00 00 00 00 00 00 
   306)      6068.2  Rx     00000108  8  41 32 33 31 51 41 30 30 
   307)      6107.6  Rx     0000011D  8  5B 00 00 00 00 00 00 00 
   308)      6107.9  Rx     00000108  8  41 32 33 31 51 41 30 30 
   309)      6147.3  Rx     0000011D  8  5B 00 00 00 00 00 00 00 
   310)      6147.6  Rx     00000108  8  41 32 33 31 51 41 30 30 
   311)      6187.0  Rx     0000011D  8  5B 00 00 00 00 00 00 00 
   312)      6187.3  Rx     00000108  8  41 32 33 31 51 41 30 30 
   313)      6226.7  Rx     0000011D  8  5B 00 00 00 00 00 00 00 
   314)      6227.0  Rx     00000108  8  41 32 33 31 51 41 30 30 
   315)      6266.4  Rx     0000011D  8  5B 00 00 00 00 00 00 00 
   316)      6266.7  Rx     00000108  8  41 32 33 31 51 41 30 30 
   317)      6306.1  Rx     0000011D  8  5B 00 00 00 00 00 00 00 
   318)      6306.4  Rx     00000108  8  41 32 33 31 51 41 30 30 
   319)      6345.9  Rx     0000011D  8  5B 00 00 00 00 00 00 00 
   320)      6346.1  Rx     00000108  8  41 32 33 31 51 41 30 30 
   321)      6385.5  Rx     0000011D  8  5B 00 00 00 00 00 00 00 
   322)      6385.8  Rx     00000108  8  41 32 33 31 51 41 30 30 
   323)      6425.3  Rx     0000011D  8  5B 00 00 00 00 00 00 00 
   324)      6425.6  Rx     00000108  8  41 32 33 31 51 41 30 30 
   325)      6465.0  Rx     0000011D  8  5B 00 00 00 00 00 00 00 
   326)      6465.2  Rx     00000108  8  41 32 33 31 51 41 30 30 
   327)      6504.7  Rx     0000011D  8  5B 00 00 00 00 00 00 00 
   328)      6505.0  Rx     00000108  8  41 32 33 31 51 41 30 30 
   329)      6544.4  Rx     0000011D  8  5B 00 00 00 00 00 00 00 
   330)      6544.7  Rx     00000108  8  41 32 33 31 51 41 30 30 
   331)      6584.1  Rx     0000011D  8  5B 00 00 00 00 00 00 00 
   332)      6584.4  Rx     00000108  8  41 32 33 31 51 41 30 30 
   333)      6623.8  Rx     0000011D  8  5B 00 00 00 00 00 00 00 
   334)      6624.1  Rx     00000108  8  41 32 33 31 51 41 30 30 
   335)      6663.5  Rx     0000011D  8  5B 00 00 00 00 00 00 00 
   336)      6663.8  Rx     00000108  8  41 32 33 31 51 41 30 30 
   337)      6703.2  Rx     0000011D  8  5B 00 00 00 00 00 00 00 
   338)      6703.5  Rx     00000108  8  41 32 33 31 51 41 30 30 
   339)      6742.9  Rx     0000011D  8  5B 00 00 00 00 00 00 00 
   340)      6743.2  Rx     00000108  8  41 32 33 31 51 41 30 30 
   341)      6782.6  Rx     0000011D  8  5B 00 00 00 00 00 00 00 
   342)      6782.9  Rx     00000108  8  41 32 33 31 51 41 30 30 
   343)      6822.3  Rx     0000011D  8  5B 00 00 00 00 00 00 00 
   344)      6822.6  Rx     00000108  8  41 32 33 31 51 41 30 30 
   345)      6862.0  Rx     0000011D  8  5B 00 00 00 00 00 00 00 
   346)      6862.3  Rx     00000108  8  41 32 33 31 51 41 30 30 
   347)      6901.7  Rx     0000011D  8  5B 00 00 00 00 00 00 00 
   348)      6902.0  Rx     00000108  8  41 32 33 31 51 41 30 30 
   349)      6941.4  Rx     0000011D  8  5B 00 00 00 00 00 00 00 
   350)      6941.7  Rx     00000108  8  41 32 33 31 51 41 30 30 
   351)      6981.1  Rx     0000011D  8  5B 00 00 00 00 00 00 00 
   352)      6981.4  Rx     00000108  8  41 32 33 31 51 41 30 30 
   353)      7020.8  Rx     0000011D  8  5B 00 00 00 00 00 00 00 
   354)      7021.1  Rx     00000108  8  41 32 33 31 51 41 30 30 
   355)      7060.6  Rx     0000011D  8  5B 00 00 00 00 00 00 00 
   356)      7060.8  Rx     00000108  8  41 32 33 31 51 41 30 30 
   357)      7100.2  Rx     0000011D  8  5B 00 00 00 00 00 00 00 
   358)      7100.5  Rx     00000108  8  41 32 33 31 51 41 30 30 
   359)      7140.0  Rx     0000011D  8  5B 00 00 00 00 00 00 00 
   360)      7140.2  Rx     00000108  8  41 32 33 31 51 41 30 30 
   361)      7179.6  Rx     0000011D  8  5B 00 00 00 00 00 00 00 
   362)      7179.9  Rx     00000108  8  41 32 33 31 51 41 30 30 
   363)      7219.4  Rx     0000011D  8  5B 00 00 00 00 00 00 00 
   364)      7219.7  Rx     00000108  8  41 32 33 31 51 41 30 30 
   365)      7259.1  Rx     0000011D  8  5B 00 00 00 00 00 00 00 
   366)      7259.4  Rx     00000108  8  41 32 33 31 51 41 30 30 
   367)      7298.8  Rx     0000011D  8  5B 00 00 00 00 00 00 00 
   368)      7299.1  Rx     00000108  8  41 32 33 31 51 41 30 30 
   369)      7338.5  Rx     0000011D  8  5B 00 00 00 00 00 00 00 
   370)      7338.8  Rx     00000108  8  41 32 33 31 51 41 30 30 
   371)      7378.2  Rx     0000011D  8  5B 00 00 00 00 00 00 00 
   372)      7378.5  Rx     00000108  8  41 32 33 31 51 41 30 30 
   373)      7417.9  Rx     0000011D  8  5B 00 00 00 00 00 00 00 
   374)      7418.2  Rx     00000108  8  41 32 33 31 51 41 30 30 
   375)      7457.6  Rx     0000011D  8  5B 00 00 00 00 00 00 00 
   376)      7457.9  Rx     00000108  8  41 32 33 31 51 41 30 30 
   377)      7497.3  Rx     0000011D  8  5B 00 00 00 00 00 00 00 
   378)      7497.6  Rx     00000108  8  41 32 33 31 51 41 30 30 
   379)      7537.0  Rx     0000011D  8  5B 00 00 00 00 00 00 00 
   380)      7537.3  Rx     00000108  8  41 32 33 31 51 41 30 30 
   381)      7576.7  Rx     0000011D  8  5B 00 00 00 00 00 00 00 
   382)      7577.0  Rx     00000108  8  41 32 33 31 51 41 30 30 
   383)      7616.4  Rx     0000011D  8  5B 00 00 00 00 00 00 00 
   384)      7616.7  Rx     00000108  8  41 32 33 31 51 41 30 30 
   385)      7656.1  Rx     0000011D  8  5B 00 00 00 00 00 00 00 
   386)      7656.4  Rx     00000108  8  41 32 33 31 51 41 30 30 
   387)      7695.8  Rx     0000011D  8  5B 00 00 00 00 00 00 00 
   388)      7696.1  Rx     00000108  8  41 32 33 31 51 41 30 30 
   389)      7735.5  Rx     0000011D  8  5B 00 00 00 00 00 00 00 
   390)      7735.8  Rx     00000108  8  41 32 33 31 51 41 30 30 
   391)      7775.2  Rx     0000011D  8  5B 00 00 00 00 00 00 00 
   392)      7775.5  Rx     00000108  8  41 32 33 31 51 41 30 30 
   393)      7814.9  Rx     0000011D  8  5B 00 00 00 00 00 00 00 
   394)      7815.2  Rx     00000108  8  41 32 33 31 51 41 30 30 
   395)      7854.6  Rx     0000011D  8  5B 00 00 00 00 00 00 00 
   396)      7854.9  Rx     00000108  8  41 32 33 31 51 41 30 30 
   397)      7894.4  Rx     0000011D  8  5B 00 00 00 00 00 00 00 
   398)      7894.6  Rx     00000108  8  41 32 33 31 51 41 30 30 
   399)      7934.0  Rx     0000011D  8  5B 00 00 00 00 00 00 00 
   400)      7934.3  Rx     00000108  8  41 32 33 31 51 41 30 30 
   401)      7973.8  Rx     0000011D  8  5B 00 00 00 00 00 00 00 
   402)      7974.0  Rx     00000108  8  41 32 33 31 51 41 30 30 
   403)      8013.4  Rx     0000011D  8  5B 00 00 00 00 00 00 00 
   404)      8013.7  Rx     00000108  8  41 32 33 31 51 41 30 30 
   405)      8053.2  Rx     0000011D  8  5B 00 00 00 00 00 00 00 
   406)      8053.4  Rx     00000108  8  41 32 33 31 51 41 30 30 
   407)      8092.8  Rx     0000011D  8  5B 00 00 00 00 00 00 00 
   408)      8093.1  Rx     00000108  8  41 32 33 31 51 41 30 30 
   409)      8132.6  Rx     0000011D  8  5B 00 00 00 00 00 00 00 
   410)      8132.8  Rx     00000108  8  41 32 33 31 51 41 30 30 
   411)      8172.2  Rx     0000011D  8  5B 00 00 00 00 00 00 00 
   412)      8172.5  Rx     00000108  8  41 32 33 31 51 41 30 30 
   413)      8212.0  Rx     0000011D  8  5B 00 00 00 00 00 00 00 
   414)      8212.2  Rx     00000108  8  41 32 33 31 51 41 30 30 
   415)      8251.7  Rx     0000011D  8  5B 00 00 00 00 00 00 00 
   416)      8252.0  Rx     00000108  8  41 32 33 31 51 41 30 30 
   417)      8291.4  Rx     0000011D  8  5B 00 00 00 00 00 00 00 
   418)      8291.7  Rx     00000108  8  41 32 33 31 51 41 30 30 
   419)      8331.1  Rx     0000011D  8  5B 00 00 00 00 00 00 00 
   420)      8331.4  Rx     00000108  8  41 32 33 31 51 41 30 30 
   421)      8370.8  Rx     0000011D  8  5B 00 00 00 00 00 00 00 
   422)      8371.1  Rx     00000108  8  41 32 33 31 51 41 30 30 
   423)      8410.5  Rx     0000011D  8  5B 00 00 00 00 00 00 00 
   424)      8410.8  Rx     00000108  8  41 32 33 31 51 41 30 30 
   425)      8450.2  Rx     0000011D  8  5B 00 00 00 00 00 00 00 
   426)      8450.5  Rx     00000108  8  41 32 33 31 51 41 30 30 
   427)      8489.9  Rx     0000011D  8  5B 00 00 00 00 00 00 00 
   428)      8490.2  Rx     00000108  8  41 32 33 31 51 41 30 30 
   429)      8529.6  Rx     0000011D  8  5B 00 00 00 00 00 00 00 
   430)      8529.9  Rx     00000108  8  41 32 33 31 51 41 30 30 
   431)      8569.3  Rx     0000011D  8  5B 00 00 00 00 00 00 00 
   432)      8569.6  Rx     00000108  8  41 32 33 31 51 41 30 30 
   433)      8609.0  Rx     0000011D  8  5B 00 00 00 00 00 00 00 
   434)      8609.3  Rx     00000108  8  41 32 33 31 51 41 30 30 
   435)      8648.7  Rx     0000011D  8  5B 00 00 00 00 00 00 00 
   436)      8649.0  Rx     00000108  8  41 32 33 31 51 41 30 30 
   437)      8688.4  Rx     0000011D  8  5B 00 00 00 00 00 00 00 
   438)      8688.7  Rx     00000108  8  41 32 33 31 51 41 30 30 
   439)      8728.1  Rx     0000011D  8  5B 00 00 00 00 00 00 00 
   440)      8728.4  Rx     00000108  8  41 32 33 31 51 41 30 30 
   441)      8767.8  Rx     0000011D  8  5B 00 00 00 00 00 00 00 
   442)      8768.1  Rx     00000108  8  41 32 33 31 51 41 30 30 
   443)      8807.5  Rx     0000011D  8  5B 00 00 00 00 00 00 00 
   444)      8807.8  Rx     00000108  8  41 32 33 31 51 41 30 30 
   445)      8847.2  Rx     0000011D  8  5B 00 00 00 00 00 00 00 
   446)      8847.5  Rx     00000108  8  41 32 33 31 51 41 30 30 
   447)      8886.9  Rx     0000011D  8  5B 00 00 00 00 00 00 00 
   448)      8887.2  Rx     00000108  8  41 32 33 31 51 41 30 30 
   449)      8926.6  Rx     0000011D  8  5B 00 00 00 00 00 00 00 
   450)      8926.9  Rx     00000108  8  41 32 33 31 51 41 30 30 
   451)      8966.3  Rx     0000011D  8  5B 00 00 00 00 00 00 00 
   452)      8966.6  Rx     00000108  8  41 32 33 31 51 41 30 30 
   453)      9006.0  Rx     0000011D  8  5B 00 00 00 00 00 00 00 
   454)      9006.3  Rx     00000108  8  41 32 33 31 51 41 30 30 
   455)      9045.7  Rx     0000011D  8  5B 00 00 00 00 00 00 00 
   456)      9046.0  Rx     00000108  8  41 32 33 31 51 41 30 30 
   457)      9085.4  Rx     0000011D  8  5B 00 00 00 00 00 00 00 
   458)      9085.7  Rx     00000108  8  41 32 33 31 51 41 30 30 
   459)      9125.1  Rx     0000011D  8  5B 00 00 00 00 00 00 00 
   460)      9125.4  Rx     00000108  8  41 32 33 31 51 41 30 30 
   461)      9164.8  Rx     0000011D  8  5B 00 00 00 00 00 00 00 
   462)      9165.1  Rx     00000108  8  41 32 33 31 51 41 30 30 
   463)      9204.5  Rx     0000011D  8  5B 00 00 00 00 00 00 00 
   464)      9204.8  Rx     00000108  8  41 32 33 31 51 41 30 30 
   465)      9244.2  Rx     0000011D  8  5B 00 00 00 00 00 00 00 
   466)      9244.5  Rx     00000108  8  41 32 33 31 51 41 30 30 
   467)      9283.9  Rx     0000011D  8  5B 00 00 00 00 00 00 00 
   468)      9284.2  Rx     00000108  8  41 32 33 31 51 41 30 30 
   469)      9323.6  Rx     0000011D  8  5B 00 00 00 00 00 00 00 
   470)      9323.9  Rx     00000108  8  41 32 33 31 51 41 30 30 
   471)      9363.3  Rx     0000011D  8  5B 00 00 00 00 00 00 00 
   472)      9363.6  Rx     00000108  8  41 32 33 31 51 41 30 30 
   473)      9403.0  Rx     0000011D  8  5B 00 00 00 00 00 00 00 
   474)      9403.3  Rx     00000108  8  41 32 33 31 51 41 30 30 
   475)      9442.7  Rx     0000011D  8  5B 00 00 00 00 00 00 00 
   476)      9443.0  Rx     00000108  8  41 32 33 31 51 41 30 30 
   477)      9482.4  Rx     0000011D  8  5B 00 00 00 00 00 00 00 
   478)      9482.7  Rx     00000108  8  41 32 33 31 51 41 30 30 
   479)      9522.2  Rx     0000011D  8  5B 00 00 00 00 00 00 00 
   480)      9522.4  Rx     00000108  8  41 32 33 31 51 41 30 30 
   481)      9561.8  Rx     0000011D  8  5B 00 00 00 00 00 00 00 
   482)      9562.1  Rx     00000108  8  41 32 33 31 51 41 30 30 
   483)      9601.6  Rx     0000011D  8  5B 00 00 00 00 00 00 00 
   484)      9601.8  Rx     00000108  8  41 32 33 31 51 41 30 30 
   485)      9641.2  Rx     0000011D  8  5B 00 00 00 00 00 00 00 
   486)      9641.5  Rx     00000108  8  41 32 33 31 51 41 30 30 
   487)      9681.0  Rx     0000011D  8  5B 00 00 00 00 00 00 00 
   488)      9681.2  Rx     00000108  8  41 32 33 31 51 41 30 30 
   489)      9720.6  Rx     0000011D  8  5B 00 00 00 00 00 00 00 
   490)      9720.9  Rx     00000108  8  41 32 33 31 51 41 30 30 
   491)      9760.4  Rx     0000011D  8  5B 00 00 00 00 00 00 00 
   492)      9760.6  Rx     00000108  8  41 32 33 31 51 41 30 30 
   493)      9800.0  Rx     0000011D  8  5B 00 00 00 00 00 00 00 
   494)      9800.3  Rx     00000108  8  41 32 33 31 51 41 30 30 
   495)      9839.8  Rx     0000011D  8  5B 00 00 00 00 00 00 00 
   496)      9840.0  Rx     00000108  8  41 32 33 31 51 41 30 30 
   497)      9879.4  Rx     0000011D  8  5B 00 00 00 00 00 00 00 
   498)      9879.7  Rx     00000108  8  41 32 33 31 51 41 30 30 
   499)      9919.2  Rx     0000011D  8  5B 00 00 00 00 00 00 00 
   500)      9919.5  Rx     00000108  8  41 32 33 31 51 41 30 30 
   501)      9958.9  Rx     0000011D  8  5B 00 00 00 00 00 00 00 
   502)      9959.1  Rx     00000108  8  41 32 33 31 51 41 30 30 
   503)      9998.6  Rx     0000011D  8  5B 00 00 00 00 00 00 00 
   504)      9998.9  Rx     00000108  8  41 32 33 31 51 41 30 30 
   505)     10038.3  Rx     0000011D  8  5B 00 00 00 00 00 00 00 
   506)     10038.6  Rx     00000108  8  41 32 33 31 51 41 30 30 
   507)     10078.0  Rx     0000011D  8  5B 00 00 00 00 00 00 00 
   508)     10078.3  Rx     00000108  8  41 32 33 31 51 41 30 30 
   509)     10117.7  Rx     0000011D  8  5B 00 00 00 00 00 00 00 
   510)     10118.0  Rx     00000108  8  41 32 33 31 51 41 30 30 
   511)     10157.4  Rx     0000011D  8  5B 00 00 00 00 00 00 00 
   512)     10157.7  Rx     00000108  8  41 32 33 31 51 41 30 30 
   513)     10197.1  Rx     0000011D  8  5B 00 00 00 00 00 00 00 
   514)     10197.4  Rx     00000108  8  41 32 33 31 51 41 30 30 
   515)     10236.8  Rx     0000011D  8  5B 00 00 00 00 00 00 00 
   516)     10237.1  Rx     00000108  8  41 32 33 31 51 41 30 30 
   517)     10276.5  Rx     0000011D  8  5B 00 00 00 00 00 00 00 
   518)     10276.8  Rx     00000108  8  41 32 33 31 51 41 30 30 
   519)     10316.2  Rx     0000011D  8  5B 00 00 00 00 00 00 00 
   520)     10316.5  Rx     00000108  8  41 32 33 31 51 41 30 30 
   521)     10356.0  Rx     0000011D  8  5B 00 00 00 00 00 00 00 
   522)     10356.2  Rx     00000108  8  41 32 33 31 51 41 30 30 
   523)     10395.7  Rx     0000011D  8  5B 00 00 00 00 00 00 00 
   524)     10395.9  Rx     00000108  8  41 32 33 31 51 41 30 30 
   525)     10435.4  Rx     0000011D  8  5B 00 00 00 00 00 00 00 
   526)     10435.6  Rx     00000108  8  41 32 33 31 51 41 30 30 
   527)     10475.1  Rx     0000011D  8  5B 00 00 00 00 00 00 00 
   528)     10475.4  Rx     00000108  8  41 32 33 31 51 41 30 30 
   529)     10514.8  Rx     0000011D  8  5B 00 00 00 00 00 00 00 
   530)     10515.1  Rx     00000108  8  41 32 33 31 51 41 30 30 
   531)     10554.5  Rx     0000011D  8  5B 00 00 00 00 00 00 00 
   532)     10554.8  Rx     00000108  8  41 32 33 31 51 41 30 30 
   533)     10594.2  Rx     0000011D  8  5B 00 00 00 00 00 00 00 
   534)     10594.5  Rx     00000108  8  41 32 33 31 51 41 30 30 
   535)     10633.9  Rx     0000011D  8  5B 00 00 00 00 00 00 00 
   536)     10634.2  Rx     00000108  8  41 32 33 31 51 41 30 30 
   537)     10673.6  Rx     0000011D  8  5B 00 00 00 00 00 00 00 
   538)     10673.9  Rx     00000108  8  41 32 33 31 51 41 30 30 
   539)     10713.3  Rx     0000011D  8  5B 00 00 00 00 00 00 00 
   540)     10713.6  Rx     00000108  8  41 32 33 31 51 41 30 30 
   541)     10753.0  Rx     0000011D  8  5B 00 00 00 00 00 00 00 
   542)     10753.3  Rx     00000108  8  41 32 33 31 51 41 30 30 
   543)     10792.7  Rx     0000011D  8  5B 00 00 00 00 00 00 00 
   544)     10793.0  Rx     00000108  8  41 32 33 31 51 41 30 30 
   545)     10832.4  Rx     0000011D  8  5B 00 00 00 00 00 00 00 
   546)     10832.7  Rx     00000108  8  41 32 33 31 51 41 30 30 
   547)     10872.1  Rx     0000011D  8  5B 00 00 00 00 00 00 00 
   548)     10872.4  Rx     00000108  8  41 32 33 31 51 41 30 30 
   549)     10911.8  Rx     0000011D  8  5B 00 00 00 00 00 00 00 
   550)     10912.1  Rx     00000108  8  41 32 33 31 51 41 30 30 
   551)     10951.5  Rx     0000011D  8  5B 00 00 00 00 00 00 00 
   552)     10951.8  Rx     00000108  8  41 32 33 31 51 41 30 30 
   553)     10991.2  Rx     0000011D  8  5B 00 00 00 00 00 00 00 
   554)     10991.5  Rx     00000108  8  41 32 33 31 51 41 30 30 
   555)     11030.9  Rx     0000011D  8  5B 00 00 00 00 00 00 00 
   556)     11031.2  Rx     00000108  8  41 32 33 31 51 41 30 30 
   557)     11070.6  Rx     0000011D  8  5B 00 00 00 00 00 00 00 
   558)     11070.9  Rx     00000108  8  41 32 33 31 51 41 30 30 
   559)     11110.3  Rx     0000011D  8  5B 00 00 00 00 00 00 00 
   560)     11110.6  Rx     00000108  8  41 32 33 31 51 41 30 30 
   561)     11150.0  Rx     0000011D  8  5B 00 00 00 00 00 00 00 
   562)     11150.3  Rx     00000108  8  41 32 33 31 51 41 30 30 
   563)     11189.8  Rx     0000011D  8  5B 00 00 00 00 00 00 00 
   564)     11190.0  Rx     00000108  8  41 32 33 31 51 41 30 30 
   565)     11229.5  Rx     0000011D  8  5B 00 00 00 00 00 00 00 
   566)     11229.8  Rx     00000108  8  41 32 33 31 51 41 30 30 
   567)     11269.2  Rx     0000011D  8  5B 00 00 00 00 00 00 00 
   568)     11269.5  Rx     00000108  8  41 32 33 31 51 41 30 30 
   569)     11308.9  Rx     0000011D  8  5B 00 00 00 00 00 00 00 
   570)     11309.2  Rx     00000108  8  41 32 33 31 51 41 30 30 
   571)     11348.6  Rx     0000011D  8  5B 00 00 00 00 00 00 00 
   572)     11348.9  Rx     00000108  8  41 32 33 31 51 41 30 30 
   573)     11388.3  Rx     0000011D  8  5B 00 00 00 00 00 00 00 
   574)     11388.6  Rx     00000108  8  41 32 33 31 51 41 30 30 
   575)     11428.0  Rx     0000011D  8  5B 00 00 00 00 00 00 00 
   576)     11428.3  Rx     00000108  8  41 32 33 31 51 41 30 30 
   577)     11467.7  Rx     0000011D  8  5B 00 00 00 00 00 00 00 
   578)     11468.0  Rx     00000108  8  41 32 33 31 51 41 30 30 
   579)     11507.4  Rx     0000011D  8  5B 00 00 00 00 00 00 00 
   580)     11507.7  Rx     00000108  8  41 32 33 31 51 41 30 30 
   581)     11547.1  Rx     0000011D  8  5B 00 00 00 00 00 00 00 
   582)     11547.4  Rx     00000108  8  41 32 33 31 51 41 30 30 
   583)     11586.8  Rx     0000011D  8  5B 00 00 00 00 00 00 00 
   584)     11587.1  Rx     00000108  8  41 32 33 31 51 41 30 30 
   585)     11626.5  Rx     0000011D  8  5B 00 00 00 00 00 00 00 
   586)     11626.8  Rx     00000108  8  41 32 33 31 51 41 30 30 
   587)     11666.2  Rx     0000011D  8  5B 00 00 00 00 00 00 00 
   588)     11666.5  Rx     00000108  8  41 32 33 31 51 41 30 30 
   589)     11705.9  Rx     0000011D  8  5B 00 00 00 00 00 00 00 
   590)     11706.2  Rx     00000108  8  41 32 33 31 51 41 30 30 
   591)     11745.6  Rx     0000011D  8  5B 00 00 00 00 00 00 00 
   592)     11745.9  Rx     00000108  8  41 32 33 31 51 41 30 30 
   593)     11785.4  Rx     0000011D  8  5B 00 00 00 00 00 00 00 
   594)     11785.6  Rx     00000108  8  41 32 33 31 51 41 30 30 
   595)     11825.0  Rx     0000011D  8  5B 00 00 00 00 00 00 00 
   596)     11825.3  Rx     00000108  8  41 32 33 31 51 41 30 30 
   597)     11864.8  Rx     0000011D  8  5B 00 00 00 00 00 00 00 
   598)     11865.1  Rx     00000108  8  41 32 33 31 51 41 30 30 
   599)     11904.5  Rx     0000011D  8  5B 00 00 00 00 00 00 00 
   600)     11904.7  Rx     00000108  8  41 32 33 31 51 41 30 30 
   601)     11944.2  Rx     0000011D  8  5B 00 00 00 00 00 00 00 
   602)     11944.5  Rx     00000108  8  41 32 33 31 51 41 30 30 
   603)     11983.9  Rx     0000011D  8  5B 00 00 00 00 00 00 00 
   604)     11984.1  Rx     00000108  8  41 32 33 31 51 41 30 30 
   605)     12023.6  Rx     0000011D  8  5B 00 00 00 00 00 00 00 
   606)     12023.9  Rx     00000108  8  41 32 33 31 51 41 30 30 
   607)     12063.3  Rx     0000011D  8  5B 00 00 00 00 00 00 00 
   608)     12063.6  Rx     00000108  8  41 32 33 31 51 41 30 30 
   609)     12103.0  Rx     0000011D  8  5B 00 00 00 00 00 00 00 
   610)     12103.3  Rx     00000108  8  41 32 33 31 51 41 30 30 
   611)     12142.7  Rx     0000011D  8  5B 00 00 00 00 00 00 00 
   612)     12143.0  Rx     00000108  8  41 32 33 31 51 41 30 30 
   613)     12182.4  Rx     0000011D  8  5B 00 00 00 00 00 00 00 
   614)     12182.7  Rx     00000108  8  41 32 33 31 51 41 30 30 
   615)     12222.1  Rx     0000011D  8  5B 00 00 00 00 00 00 00 
   616)     12222.4  Rx     00000108  8  41 32 33 31 51 41 30 30 
   617)     12261.9  Rx     00000118  8  5B 00 00 00 00 00 00 00 
   618)     12262.1  Rx     00000112  8  44 44 37 30 30 43 20 20 
   619)     12262.4  Rx     00000117  8  5B 00 00 00 00 00 00 00 
   620)     12262.7  Rx     00000111  8  31 32 30 30 42 30 48 54 
   621)     12263.0  Rx     00000119  8  5B 00 00 00 00 00 00 00 
   622)     12263.3  Rx     00000113  8  30 30 30 30 30 30 30 30 
   623)     12263.6  Rx     00000113  8  31 32 33 34 35 36 37 38 
   624)     12263.9  Rx     0000011D  8  5B 00 00 00 00 00 00 00 
   625)     12264.2  Rx     00000108  8  41 32 33 31 51 41 30 30 
   626)     24136.9  Rx     0000011A  8  58 22 D4 27 16 3F DB 76 
   627)     24137.4  Rx     00000110  8  31 32 30 30 42 30 48 54 
   628)     24137.7  Rx     0000011B  8  6A E3 EA 00 79 41 5C B4 
   629)     24138.2  Rx     0000010F  8  41 32 33 31 51 41 30 30 
   630)     24138.5  Rx     0000011C  8  BE AE 85 98 02 9F 4F D8 
   631)     24139.0  Rx     00000109  8  44 44 37 30 30 43 20 20 
   632)     24634.7  Rx     00000116  1  00 
   633)     24735.1  Rx     00000115  8  F4 01 00 00 01 00 01 00 
   634)     24751.5  Rx     00000114  8  00 00 00 00 00 00 00 00 
   635)     24751.8  Rx     00000115  8  01 00 01 00 E8 03 FE 01 
   636)     24752.1  Rx     00000114  8  00 00 00 00 00 00 00 00 
   637)     24752.4  Rx     00000115  8  9A 01 58 02 F0 00 58 02 
   638)     24752.7  Rx     00000114  8  00 00 00 00 00 00 00 00 
   639)     24753.0  Rx     00000115  8  30 00 E8 03 D4 01 00 00 
   640)     24753.3  Rx     00000114  8  00 00 00 00 00 00 00 00 
   641)     24753.6  Rx     00000115  8  0A 00 23 00 DC 05 E8 03 
   642)     24753.9  Rx     00000114  8  00 00 00 00 00 00 00 00 
   643)     24754.2  Rx     00000115  8  2C 01 2C 01 B6 03 90 06 
   644)     24754.5  Rx     00000114  8  00 00 00 00 00 00 00 00 
   645)     24754.8  Rx     00000115  8  17 54 30 68 FD 74 48 7C 
   646)     24755.1  Rx     00000114  8  00 00 00 00 00 00 00 00 
   647)     24755.4  Rx     00000115  8  3A 7F FF 7F FF 7F FF 7F 
   648)     24755.7  Rx     00000114  8  00 00 00 00 00 00 00 00 
   649)     24756.0  Rx     00000115  8  FF 7F FF 7F FF 7F FF 7F 
   650)     24756.3  Rx     00000114  8  00 00 00 00 00 00 00 00 
   651)     24756.6  Rx     00000115  8  FF 7F FF 7F FF 7F FF 7F 
   652)     24756.9  Rx     00000114  8  00 00 00 00 00 00 00 00 
   653)     24757.2  Rx     00000115  8  FF 7F FF 7F FF 7F FF 7F 
   654)     24757.5  Rx     00000114  8  00 00 00 00 00 00 00 00 
   655)     24757.9  Rx     00000115  8  FF 7F FF 7F FF 7F FF 7F 
   656)     24758.2  Rx     00000114  8  00 00 00 00 00 00 00 00 
   657)     24758.5  Rx     00000115  8  FF 7F 00 00 62 00 E5 00 
   658)     24758.8  Rx     00000114  8  00 00 00 00 00 00 00 00 
   659)     24759.1  Rx     00000115  8  68 01 EB 01 6E 02 F1 02 
   660)     24759.4  Rx     00000114  8  00 00 00 00 00 00 00 00 
   661)     24759.7  Rx     00000115  8  74 03 F7 03 7A 04 FD 04 
   662)     24760.0  Rx     00000114  8  00 00 00 00 00 00 00 00 
   663)     24760.3  Rx     00000115  8  80 05 04 06 66 06 E9 06 
   664)     24760.6  Rx     00000114  8  00 00 00 00 00 00 00 00 
   665)     24760.9  Rx     00000115  8  6C 07 EF 07 72 08 F5 08 
   666)     24761.2  Rx     00000114  8  00 00 00 00 00 00 00 00 
   667)     24761.5  Rx     00000115  8  78 09 FB 09 7E 0A 01 0B 
   668)     24761.8  Rx     00000114  8  00 00 00 00 00 00 00 00 
   669)     24762.1  Rx     00000115  8  85 0B 08 0C 8B 0C ED 0C 
   670)     24762.4  Rx     00000114  8  00 00 00 00 00 00 00 00 
   671)     24762.7  Rx     00000115  8  70 0D F3 0D 76 0E F9 0E 
   672)     24763.0  Rx     00000114  8  00 00 00 00 00 00 00 00 
   673)     24763.3  Rx     00000115  8  7C 0F FF 0F 82 10 06 11 
   674)     24763.6  Rx     00000114  8  00 00 00 00 00 00 00 00 
   675)     24763.9  Rx     00000115  8  89 11 0C 12 8F 12 12 13 
   676)     24764.1  Rx     00000114  8  00 00 00 00 00 00 00 00 
   677)     24764.4  Rx     00000115  8  74 13 F7 13 7A 14 FD 14 
   678)     24764.7  Rx     00000114  8  00 00 00 00 00 00 00 00 
   679)     24765.0  Rx     00000115  8  80 15 03 16 86 16 0A 17 
   680)     24765.3  Rx     00000114  8  00 00 00 00 00 00 00 00 
   681)     24765.6  Rx     00000115  8  8D 17 10 18 93 18 16 19 
   682)     24765.9  Rx     00000114  8  00 00 00 00 00 00 00 00 
   683)     24766.2  Rx     00000115  8  78 19 FB 19 7E 1A 01 1B 
   684)     24766.5  Rx     00000114  8  00 00 00 00 00 00 00 00 
   685)     24766.8  Rx     00000115  8  84 1B 07 1C 8B 1C 0E 1D 
   686)     24767.1  Rx     00000114  8  00 00 00 00 00 00 00 00 
   687)     24767.4  Rx     00000115  8  91 1D 14 1E 97 1E 1A 1F 
   688)     24767.7  Rx     00000114  8  00 00 00 00 00 00 00 00 
   689)     24768.0  Rx     00000115  8  9D 1F FF 1F 82 20 05 21 
   690)     24768.3  Rx     00000114  8  00 00 00 00 00 00 00 00 
   691)     24768.6  Rx     00000115  8  88 21 0C 22 8F 22 12 23 
   692)     24768.9  Rx     00000114  8  00 00 00 00 00 00 00 00 
   693)     24769.2  Rx     00000115  8  95 23 18 24 9B 24 1E 25 
   694)     24769.5  Rx     00000114  8  00 00 00 00 00 00 00 00 
   695)     25130.9  Rx     00000115  8  A1 25 24 26 86 26 09 27 
   696)     25134.1  Rx     00000114  8  00 00 00 00 00 00 00 00 
   697)     25134.4  Rx     00000115  8  8D 27 10 28 93 28 16 29 
   698)     25134.7  Rx     00000114  8  00 00 00 00 00 00 00 00 
   699)     25135.0  Rx     00000115  8  99 29 1C 2A 9F 2A 22 2B 
   700)     25135.3  Rx     00000114  8  00 00 00 00 00 00 00 00 
   701)     25135.6  Rx     00000115  8  A5 2B 28 2C AB 2C 0D 2D 
   702)     25135.9  Rx     00000114  8  00 00 00 00 00 00 00 00 
   703)     25136.2  Rx     00000115  8  91 2D 14 2E 97 2E 1A 2F 
   704)     25136.5  Rx     00000114  8  00 00 00 00 00 00 00 00 
   705)     25136.8  Rx     00000115  8  9D 2F 20 30 A3 30 26 31 
   706)     25137.1  Rx     00000114  8  00 00 00 00 00 00 00 00 
   707)     25137.3  Rx     00000115  8  A9 31 2C 32 AF 32 32 33 
   708)     25137.6  Rx     00000114  8  00 00 00 00 00 00 00 00 
   709)     25137.9  Rx     00000115  8  95 33 18 34 9B 34 1E 35 
   710)     25138.2  Rx     00000114  8  00 00 00 00 00 00 00 00 
   711)     25138.5  Rx     00000115  8  A1 35 24 36 A7 36 2A 37 
   712)     25138.8  Rx     00000114  8  00 00 00 00 00 00 00 00 
   713)     25139.1  Rx     00000115  8  AD 37 30 38 B3 38 36 39 
   714)     25139.4  Rx     00000114  8  00 00 00 00 00 00 00 00 
   715)     25139.7  Rx     00000115  8  99 39 1C 3A 9F 3A 22 3B 
   716)     25140.0  Rx     00000114  8  00 00 00 00 00 00 00 00 
   717)     25140.3  Rx     00000115  8  A5 3B 28 3C AB 3C 2E 3D 
   718)     25140.6  Rx     00000114  8  00 00 00 00 00 00 00 00 
   719)     25140.9  Rx     00000115  8  B1 3D 34 3E B7 3E 3A 3F 
   720)     25141.2  Rx     00000114  8  00 00 00 00 00 00 00 00 
   721)     25141.5  Rx     00000115  8  BD 3F 20 40 A3 40 26 41 
   722)     25141.8  Rx     00000114  8  00 00 00 00 00 00 00 00 
   723)     25142.1  Rx     00000115  8  A9 41 2C 42 AF 42 32 43 
   724)     25142.4  Rx     00000114  8  00 00 00 00 00 00 00 00 
   725)     25142.7  Rx     00000115  8  B5 43 38 44 BB 44 3E 45 
   726)     25143.0  Rx     00000114  8  00 00 00 00 00 00 00 00 
   727)     25143.2  Rx     00000115  8  C2 45 45 46 A7 46 2A 47 
   728)     25143.6  Rx     00000114  8  00 00 00 00 00 00 00 00 
   729)     25143.8  Rx     00000115  8  AD 47 30 48 B3 48 36 49 
   730)     25144.1  Rx     00000114  8  00 00 00 00 00 00 00 00 
   731)     25144.4  Rx     00000115  8  B9 49 3C 4A BF 4A 42 4B 
   732)     25144.7  Rx     00000114  8  00 00 00 00 00 00 00 00 
   733)     25145.0  Rx     00000115  8  C6 4B 49 4C AB 4C 2E 4D 
   734)     25145.3  Rx     00000114  8  00 00 00 00 00 00 00 00 
   735)     25145.6  Rx     00000115  8  B1 4D 34 4E B7 4E 3A 4F 
   736)     25145.9  Rx     00000114  8  00 00 00 00 00 00 00 00 
   737)     25146.2  Rx     00000115  8  BD 4F 40 50 C3 50 47 51 
   738)     25146.5  Rx     00000114  8  00 00 00 00 00 00 00 00 
   739)     25146.8  Rx     00000115  8  CA 51 4D 52 D0 52 32 53 
   740)     25147.1  Rx     00000114  8  00 00 00 00 00 00 00 00 
   741)     25147.4  Rx     00000115  8  B5 53 38 54 BB 54 3E 55 
   742)     25147.7  Rx     00000114  8  00 00 00 00 00 00 00 00 
   743)     25148.0  Rx     00000115  8  C1 55 44 56 C8 56 4B 57 
   744)     25148.3  Rx     00000114  8  00 00 00 00 00 00 00 00 
   745)     25148.6  Rx     00000115  8  CE 57 51 58 D4 58 57 59 
   746)     25148.9  Rx     00000114  8  00 00 00 00 00 00 00 00 
   747)     25149.2  Rx     00000115  8  B9 59 3C 5A BF 5A 42 5B 
   748)     25149.5  Rx     00000114  8  00 00 00 00 00 00 00 00 
   749)     25149.7  Rx     00000115  8  C5 5B 49 5C CC 5C 4F 5D 
   750)     25150.1  Rx     00000114  8  00 00 00 00 00 00 00 00 
   751)     25150.3  Rx     00000115  8  D2 5D 55 5E D8 5E 5B 5F 
   752)     25150.6  Rx     00000114  8  00 00 00 00 00 00 00 00 
   753)     25150.9  Rx     00000115  8  DE 5F 40 60 C3 60 46 61 
   754)     25151.2  Rx     00000114  8  00 00 00 00 00 00 00 00 
   755)     25151.5  Rx     00000115  8  C9 61 4D 62 D0 62 53 63 
   756)     25151.8  Rx     00000114  8  00 00 00 00 00 00 00 00 
   757)     25634.3  Rx     00000115  8  D6 63 59 64 DC 64 5F 65 
   758)     25634.6  Rx     00000114  8  00 00 00 00 00 00 00 00 
   759)     25634.9  Rx     00000115  8  E2 65 65 66 C7 66 4A 67 
   760)     25638.0  Rx     00000114  8  00 00 00 00 00 00 00 00 
   761)     25638.3  Rx     00000115  8  CE 67 51 68 D4 68 57 69 
   762)     25638.6  Rx     00000114  8  00 00 00 00 00 00 00 00 
   763)     25638.9  Rx     00000115  8  DA 69 5D 6A E0 6A 63 6B 
   764)     25639.2  Rx     00000114  8  00 00 00 00 00 00 00 00 
   765)     25639.5  Rx     00000115  8  E6 6B 69 6C CB 6C 4F 6D 
   766)     25639.8  Rx     00000114  8  00 00 00 00 00 00 00 00 
   767)     25640.1  Rx     00000115  8  D2 6D 55 6E D8 6E 5B 6F 
   768)     25640.4  Rx     00000114  8  00 00 00 00 00 00 00 00 
   769)     25640.7  Rx     00000115  8  DE 6F 61 70 E4 70 67 71 
   770)     25641.0  Rx     00000114  8  00 00 00 00 00 00 00 00 
   771)     25641.3  Rx     00000115  8  EA 71 6D 72 F0 72 53 73 
   772)     25641.6  Rx     00000114  8  00 00 00 00 00 00 00 00 
   773)     25641.9  Rx     00000115  8  D6 73 59 74 DC 74 5F 75 
   774)     25642.2  Rx     00000114  8  00 00 00 00 00 00 00 00 
   775)     25642.5  Rx     00000115  8  E2 75 65 76 E8 76 6B 77 
   776)     25642.7  Rx     00000114  8  00 00 00 00 00 00 00 00 
   777)     25643.0  Rx     00000115  8  EE 77 71 78 F4 78 77 79 
   778)     25643.3  Rx     00000114  8  00 00 00 00 00 00 00 00 
   779)     25643.6  Rx     00000115  8  DA 79 5D 7A E0 7A 63 7B 
   780)     25643.9  Rx     00000114  8  00 00 00 00 00 00 00 00 
   781)     25644.2  Rx     00000115  8  E6 7B 69 7C EC 7C 6F 7D 
   782)     25644.5  Rx     00000114  8  00 00 00 00 00 00 00 00 
   783)     25644.8  Rx     00000115  8  F2 7D 75 7E F8 7E 7B 7F 
   784)     25645.1  Rx     00000114  8  00 00 00 00 00 00 00 00 
   785)     25645.4  Rx     00000115  8  FF 7F FF 7F FF 7F FF 7F 
   786)     25645.7  Rx     00000114  8  00 00 00 00 00 00 00 00 
   787)     25646.0  Rx     00000115  8  FF 7F FF 7F FF 7F FF 7F 
   788)     25646.3  Rx     00000114  8  00 00 00 00 00 00 00 00 
   789)     25646.6  Rx     00000115  8  FF 7F FF 7F FF 7F FF 7F 
   790)     25646.9  Rx     00000114  8  00 00 00 00 00 00 00 00 
   791)     25647.2  Rx     00000115  8  FF 7F FF 7F FF 7F FF 7F 
   792)     25647.5  Rx     00000114  8  00 00 00 00 00 00 00 00 
   793)     25647.8  Rx     00000115  8  FF 7F FF 7F FF 7F FF 7F 
   794)     25648.2  Rx     00000114  8  00 00 00 00 00 00 00 00 
   795)     25648.5  Rx     00000115  8  FF 7F FF 7F FF 7F FF 7F 
   796)     25648.8  Rx     00000114  8  00 00 00 00 00 00 00 00 
   797)     25649.1  Rx     00000115  8  FF 7F FF 7F FF 7F FF 7F 
   798)     25649.4  Rx     00000114  8  00 00 00 00 00 00 00 00 
   799)     25649.7  Rx     00000115  8  FF 7F FF 7F FF 7F FF 7F 
   800)     25650.0  Rx     00000114  8  00 00 00 00 00 00 00 00 
   801)     25650.3  Rx     00000115  8  FF 7F FF 7F FF 7F FF 7F 
   802)     25650.6  Rx     00000114  8  00 00 00 00 00 00 00 00 
   803)     25650.9  Rx     00000115  8  FF 7F FF 7F FF 7F FF 7F 
   804)     25651.2  Rx     00000114  8  00 00 00 00 00 00 00 00 
   805)     25651.5  Rx     00000115  8  FF 7F FF 7F FF 7F FF 7F 
   806)     25651.8  Rx     00000114  8  00 00 00 00 00 00 00 00 
   807)     25652.1  Rx     00000115  8  FF 7F FF 7F FF 7F FF 7F 
   808)     25652.4  Rx     00000114  8  00 00 00 00 00 00 00 00 
   809)     25652.7  Rx     00000115  8  FF 7F FF 7F FF 7F FF 7F 
   810)     25653.0  Rx     00000114  8  00 00 00 00 00 00 00 00 
   811)     25653.3  Rx     00000115  8  FF 7F FF 7F FF 7F FF 7F 
   812)     25653.6  Rx     00000114  8  00 00 00 00 00 00 00 00 
   813)     25653.9  Rx     00000115  8  FF 7F FF 7F FF 7F FF 7F 
   814)     25654.2  Rx     00000114  8  00 00 00 00 00 00 00 00 
   815)     25654.5  Rx     00000115  8  FF 7F FF 7F FF 7F FF 7F 
   816)     25654.9  Rx     00000114  8  00 00 00 00 00 00 00 00 
   817)     25655.2  Rx     00000115  8  FF 7F FF 7F FF 7F FF 7F 
   818)     25655.5  Rx     00000114  8  00 00 00 00 00 00 00 00 
   819)     26137.9  Rx     00000115  8  FF 7F FF 7F FF 7F FF 7F 
   820)     26138.2  Rx     00000114  8  00 00 00 00 00 00 00 00 
   821)     26138.5  Rx     00000115  8  FF 7F FF 7F FF 7F FF 7F 
   822)     26138.8  Rx     00000114  8  00 00 00 00 00 00 00 00 
   823)     26139.1  Rx     00000115  8  FF 7F FF 7F FF 7F FF 7F 
   824)     26142.3  Rx     00000114  8  00 00 00 00 00 00 00 00 
   825)     26142.6  Rx     00000115  8  FF 7F FF 7F FF 7F FF 7F 
   826)     26142.9  Rx     00000114  8  00 00 00 00 00 00 00 00 
   827)     26143.2  Rx     00000115  8  FF 7F 00 00 00 00 00 00 
   828)     26143.5  Rx     00000114  8  00 00 00 00 00 00 00 00 
   829)     26143.9  Rx     00000115  8  00 00 00 00 00 00 00 00 
   830)     26144.2  Rx     00000114  8  00 00 00 00 00 00 00 00 
   831)     26144.5  Rx     00000115  8  00 00 00 00 00 00 00 00 
   832)     26144.8  Rx     00000114  8  00 00 00 00 00 00 00 00 
   833)     26145.1  Rx     00000115  8  FF 7F FF 7F FF 7F FF 7F 
   834)     26145.4  Rx     00000114  8  00 00 00 00 00 00 00 00 
   835)     26145.7  Rx     00000115  8  FF 7F FF 7F FF 7F FF 7F 
   836)     26146.0  Rx     00000114  8  00 00 00 00 00 00 00 00 
   837)     26146.3  Rx     00000115  8  FF 7F FF 7F FF 7F FF 7F 
   838)     26146.6  Rx     00000114  8  00 00 00 00 00 00 00 00 
   839)     26146.9  Rx     00000115  8  FF 7F FF 7F FF 7F FF 7F 
   840)     26147.2  Rx     00000114  8  00 00 00 00 00 00 00 00 
   841)     26147.5  Rx     00000115  8  FF 7F FF 7F FF 7F FF 7F 
   842)     26147.8  Rx     00000114  8  00 00 00 00 00 00 00 00 
   843)     26148.1  Rx     00000115  8  FF 7F F4 01 F4 01 01 00 
   844)     26148.4  Rx     00000114  8  00 00 00 00 00 00 00 00 
   845)     26148.7  Rx     00000115  8  01 00 FF 7F FF 7F FF 7F 
   846)     26149.0  Rx     00000114  8  00 00 00 00 00 00 00 00 
   847)     26149.3  Rx     00000115  8  FF 7F FF 7F FF 7F FF 7F 
   848)     26149.6  Rx     00000114  8  00 00 00 00 00 00 00 00 
   849)     26149.9  Rx     00000115  8  FF 7F FF 7F FF 7F FF 7F 
   850)     26150.2  Rx     00000114  8  00 00 00 00 00 00 00 00 
   851)     26150.6  Rx     00000115  8  FF 7F FF 7F FF 7F FF 7F 
   852)     26150.9  Rx     00000114  8  00 00 00 00 00 00 00 00 
   853)     26151.2  Rx     00000115  8  FF 7F FF 7F FF 7F FF 7F 
   854)     26151.5  Rx     00000114  8  00 00 00 00 00 00 00 00 
   855)     26151.8  Rx     00000115  8  FF 7F FF 7F FF 7F FF 7F 
   856)     26152.1  Rx     00000114  8  00 00 00 00 00 00 00 00 
   857)     26152.4  Rx     00000115  8  FF 7F FF 7F FF 7F FF 7F 
   858)     26152.7  Rx     00000114  8  00 00 00 00 00 00 00 00 
   859)     26153.0  Rx     00000115  8  FF 7F FF 7F FF 7F FF 7F 
   860)     26153.3  Rx     00000114  8  00 00 00 00 00 00 00 00 
   861)     26153.6  Rx     00000115  8  FF 7F FF 7F FF 7F FF 7F 
   862)     26153.9  Rx     00000114  8  00 00 00 00 00 00 00 00 
   863)     26154.2  Rx     00000115  8  FF 7F FF 7F FF 7F FF 7F 
   864)     26154.5  Rx     00000114  8  00 00 00 00 00 00 00 00 
   865)     26154.8  Rx     00000115  8  FF 7F FF 7F FF 7F FF 7F 
   866)     26155.1  Rx     00000114  8  00 00 00 00 00 00 00 00 
   867)     26155.4  Rx     00000115  8  FF 7F FF 7F FF 7F FF 7F 
   868)     26155.7  Rx     00000114  8  00 00 00 00 00 00 00 00 
   869)     26156.0  Rx     00000115  8  FF 7F FF 7F FF 7F FF 7F 
   870)     26156.3  Rx     00000114  8  00 00 00 00 00 00 00 00 
   871)     26156.6  Rx     00000115  8  FF 7F FF 7F FF 7F FF 7F 
   872)     26156.9  Rx     00000114  8  00 00 00 00 00 00 00 00 
   873)     26157.2  Rx     00000115  8  FF 7F FF 7F FF 7F FF 7F 
   874)     26157.6  Rx     00000114  8  00 00 00 00 00 00 00 00 
   875)     26157.9  Rx     00000115  8  FF 7F FF 7F FF 7F FF 7F 
   876)     26158.2  Rx     00000114  8  00 00 00 00 00 00 00 00 
   877)     26158.5  Rx     00000115  8  FF 7F 2C 01 F4 01 E7 EA 
   878)     26158.8  Rx     00000114  8  00 00 00 00 00 00 00 00 
   879)     26159.1  Rx     00000115  8  BB 7A 3B 61 3D 57 D4 8C 
   880)     26159.3  Rx     00000114  8  00 00 00 00 00 00 00 00 
   881)     26641.8  Rx     00000115  8  DB 55 84 17 30 4A 1C 17 
   882)     26642.1  Rx     00000114  8  00 00 00 00 00 00 00 00 
   883)     26642.4  Rx     00000115  8  64 A2 B9 A5 EE BA 46 5B 
   884)     26642.7  Rx     00000114  8  00 00 00 00 00 00 00 00 
   885)     26643.0  Rx     00000115  8  CE FC D3 DD A4 0A C2 7E 
   886)     26643.3  Rx     00000114  8  00 00 00 00 00 00 00 00 
   887)     26643.6  Rx     00000115  8  DF C8 2E F2 04 3B 03 C1 
   888)     26646.8  Rx     00000114  8  00 00 00 00 00 00 00 00 
   889)     26647.1  Rx     00000115  8  C1 4B 49 9F FB D5 62 87 
   890)     26647.4  Rx     00000114  8  00 00 00 00 00 00 00 00 
   891)     26647.7  Rx     00000115  8  F8 10 23 C0 2E B5 50 AD 
   892)     26648.0  Rx     00000114  8  00 00 00 00 00 00 00 00 
   893)     26648.3  Rx     00000115  8  17 6D C8 6E 1E 97 8A 3D 
   894)     26648.6  Rx     00000114  8  00 00 00 00 00 00 00 00 
   895)     26648.8  Rx     00000115  8  E8 4B 90 FF D2 A9 D8 79 
   896)     26649.2  Rx     00000114  8  00 00 00 00 00 00 00 00 
   897)     26649.4  Rx     00000115  8  CF 37 79 B8 61 1E 09 75 
   898)     26649.7  Rx     00000114  8  00 00 00 00 00 00 00 00 
   899)     26650.0  Rx     00000115  8  FE CA 17 71 97 63 31 40 
   900)     26650.3  Rx     00000114  8  00 00 00 00 00 00 00 00 
   901)     26650.6  Rx     00000115  8  5B 69 8F 2A 44 25 B8 82 
   902)     26650.9  Rx     00000114  8  00 00 00 00 00 00 00 00 
   903)     26651.2  Rx     00000115  8  B4 AB 69 13 C7 92 85 E9 
   904)     26651.5  Rx     00000114  8  00 00 00 00 00 00 00 00 
   905)     26651.8  Rx     00000115  8  ED 21 F4 C6 36 93 14 BE 
   906)     26652.1  Rx     00000114  8  00 00 00 00 00 00 00 00 
   907)     26652.4  Rx     00000115  8  AF 19 0F 9E 1B 72 D3 88 
   908)     26652.7  Rx     00000114  8  00 00 00 00 00 00 00 00 
   909)     26653.0  Rx     00000115  8  A0 B8 56 59 1D 43 0B 4A 
   910)     26653.3  Rx     00000114  8  00 00 00 00 00 00 00 00 
   911)     26653.6  Rx     00000115  8  D1 32 76 60 E9 C6 ED 94 
   912)     26653.9  Rx     00000114  8  00 00 00 00 00 00 00 00 
   913)     26654.2  Rx     00000115  8  20 1C 98 0D 92 67 F9 99 
   914)     26654.5  Rx     00000114  8  00 00 00 00 00 00 00 00 
   915)     26654.8  Rx     00000115  8  C1 32 EE 1C 44 B7 D6 6F 
   916)     26655.1  Rx     00000114  8  00 00 00 00 00 00 00 00 
   917)     26655.4  Rx     00000115  8  01 3A F0 C5 AC 30 3B 90 
   918)     26655.7  Rx     00000114  8  00 00 00 00 00 00 00 00 
   919)     26656.0  Rx     00000115  8  04 37 F3 DE BD 13 0A BB 
   920)     26656.3  Rx     00000114  8  00 00 00 00 00 00 00 00 
   921)     26656.6  Rx     00000115  8  02 1B 5B 00 55 68 07 43 
   922)     26656.9  Rx     00000114  8  00 00 00 00 00 00 00 00 
   923)     26657.2  Rx     00000115  8  67 CD 48 41 54 2A EA 71 
   924)     26657.5  Rx     00000114  8  00 00 00 00 00 00 00 00 
   925)     26657.8  Rx     00000115  8  BC E0 07 F0 1A 76 B9 7A 
   926)     26658.1  Rx     00000114  8  00 00 00 00 00 00 00 00 
   927)     26658.3  Rx     00000115  8  85 B4 76 E4 48 84 DB FF 
   928)     26658.6  Rx     00000114  8  00 00 00 00 00 00 00 00 
   929)     26658.9  Rx     00000115  8  13 64 74 3A E1 D4 00 A2 
   930)     26659.2  Rx     00000114  8  00 00 00 00 00 00 00 00 
   931)     26659.5  Rx     00000115  8  BF 15 1F A1 4C FA 55 79 
   932)     26659.8  Rx     00000114  8  00 00 00 00 00 00 00 00 
   933)     26660.1  Rx     00000115  8  3A 39 6A 95 69 95 A2 3C 
   934)     26660.4  Rx     00000114  8  00 00 00 00 00 00 00 00 
   935)     26660.7  Rx     00000115  8  26 FB 5F 74 51 3D 2D AA 
   936)     26661.0  Rx     00000114  8  00 00 00 00 00 00 00 00 
   937)     26661.3  Rx     00000115  8  0F 83 15 C5 32 19 42 3A 
   938)     26661.6  Rx     00000114  8  00 00 00 00 00 00 00 00 
   939)     26661.9  Rx     00000115  8  73 10 75 5C 1C E6 E2 66 
   940)     26662.2  Rx     00000114  8  00 00 00 00 00 00 00 00 
   941)     26662.5  Rx     00000115  8  B0 8F 73 F5 DE D1 26 73 
   942)     26662.8  Rx     00000114  8  00 00 00 00 00 00 00 00 
   943)     27145.3  Rx     00000115  8  BE C8 73 69 2F 7B DC 8B 
   944)     27145.6  Rx     00000114  8  00 00 00 00 00 00 00 00 
   945)     27145.9  Rx     00000115  8  CE 70 E4 9D 00 49 91 4D 
   946)     27146.2  Rx     00000114  8  00 00 00 00 00 00 00 00 
   947)     27146.4  Rx     00000115  8  33 48 10 CC 76 12 4D 6D 
   948)     27146.7  Rx     00000114  8  00 00 00 00 00 00 00 00 
   949)     27147.0  Rx     00000115  8  B6 34 5E 3C 1F 77 AE 9E 
   950)     27147.3  Rx     00000114  8  00 00 00 00 00 00 00 00 
   951)     27147.6  Rx     00000115  8  C5 4D 5C 52 50 75 F9 DC 
   952)     27150.8  Rx     00000114  8  00 00 00 00 00 00 00 00 
   953)     27151.1  Rx     00000115  8  D0 41 8E 14 88 23 19 FC 
   954)     27151.4  Rx     00000114  8  00 00 00 00 00 00 00 00 
   955)     27151.7  Rx     00000115  8  67 3E 59 5F DB 28 27 83 
   956)     27152.0  Rx     00000114  8  00 00 00 00 00 00 00 00 
   957)     27152.3  Rx     00000115  8  76 0E 09 37 E5 20 94 1C 
   958)     27152.6  Rx     00000114  8  00 00 00 00 00 00 00 00 
   959)     27152.9  Rx     00000115  8  A4 9C 88 9B EB 97 A4 A8 
   960)     27153.2  Rx     00000114  8  00 00 00 00 00 00 00 00 
   961)     27153.4  Rx     00000115  8  86 7B 9B B7 7D EA 45 DA 
   962)     27153.8  Rx     00000114  8  00 00 00 00 00 00 00 00 
   963)     27154.0  Rx     00000115  8  CF 13 9F 9C E3 2C 9B 0D 
   964)     27154.3  Rx     00000114  8  00 00 00 00 00 00 00 00 
   965)     27154.6  Rx     00000115  8  8A 8E AF E9 40 0B 7E 5F 
   966)     27155.0  Rx     00000114  8  00 00 00 00 00 00 00 00 
   967)     27155.2  Rx     00000115  8  F5 AA 5F 99 7D 0F FC 86 
   968)     27155.5  Rx     00000114  8  00 00 00 00 00 00 00 00 
   969)     27155.8  Rx     00000115  8  9D FB 6B 5B 9F 0A 3E 01 
   970)     27156.2  Rx     00000114  8  00 00 00 00 00 00 00 00 
   971)     27156.4  Rx     00000115  8  1D 7C 8B 24 19 23 42 66 
   972)     27156.7  Rx     00000114  8  00 00 00 00 00 00 00 00 
   973)     27157.0  Rx     00000115  8  49 02 A9 B8 ED DE AE 5F 
   974)     27157.3  Rx     00000114  8  00 00 00 00 00 00 00 00 
   975)     27157.6  Rx     00000115  8  47 3F 9E F9 27 ED 99 8A 
   976)     27157.9  Rx     00000114  8  00 00 00 00 00 00 00 00 
   977)     27158.2  Rx     00000115  8  B4 33 A3 16 B4 B7 11 EF 
   978)     27158.5  Rx     00000114  8  00 00 00 00 00 00 00 00 
   979)     27158.8  Rx     00000115  8  8A 10 6D 87 F8 C8 C7 E7 
   980)     27159.1  Rx     00000114  8  00 00 00 00 00 00 00 00 
   981)     27159.4  Rx     00000115  8  29 9F D7 B5 C9 6D 83 91 
   982)     27159.7  Rx     00000114  8  00 00 00 00 00 00 00 00 
   983)     27160.0  Rx     00000115  8  06 E0 D9 00 A2 FC 0C 41 
   984)     27160.3  Rx     00000114  8  00 00 00 00 00 00 00 00 
   985)     27160.6  Rx     00000115  8  4C 4B C1 84 0A 46 FE 72 
   986)     27160.9  Rx     00000114  8  00 00 00 00 00 00 00 00 
   987)     27161.2  Rx     00000115  8  63 B1 73 7A 22 A7 2D F5 
   988)     27161.5  Rx     00000114  8  00 00 00 00 00 00 00 00 
   989)     27161.8  Rx     00000115  8  CF 7C D3 DF 64 27 40 9F 
   990)     27162.1  Rx     00000114  8  00 00 00 00 00 00 00 00 
   991)     27162.4  Rx     00000115  8  A6 06 04 AD 21 5F 47 B4 
   992)     27162.7  Rx     00000114  8  00 00 00 00 00 00 00 00 
   993)     27163.0  Rx     00000115  8  BC FC 55 F4 B8 9F AA 11 
   994)     27163.3  Rx     00000114  8  00 00 00 00 00 00 00 00 
   995)     27163.6  Rx     00000115  8  E6 C3 D1 A2 E7 D6 6A C6 
   996)     27163.9  Rx     00000114  8  00 00 00 00 00 00 00 00 
   997)     27164.2  Rx     00000115  8  A1 6B 52 59 8E E2 03 C2 
   998)     27164.5  Rx     00000114  8  00 00 00 00 00 00 00 00 
   999)     27164.8  Rx     00000115  8  C7 12 87 CE 28 2A 4E B3 
  1000)     27165.1  Rx     00000114  8  00 00 00 00 00 00 00 00 
  1001)     27165.4  Rx     00000115  8  C3 02 D2 CD 1C CF 9B B3 
  1002)     27165.6  Rx     00000114  8  00 00 00 00 00 00 00 00 
  1003)     27165.9  Rx     00000115  8  48 4C 29 56 41 A2 3C 03 
  1004)     27166.2  Rx     00000114  8  00 00 00 00 00 00 00 00 
  1005)     27648.7  Rx     00000115  8  30 33 50 42 18 F7 E0 C2 
  1006)     27649.0  Rx     00000114  8  00 00 00 00 00 00 00 00 
  1007)     27649.3  Rx     00000115  8  32 1D B7 B2 E2 E2 62 8B 
  1008)     27649.6  Rx     00000114  8  00 00 00 00 00 00 00 00 
  1009)     27649.9  Rx     00000115  8  B5 BA 9B DD B4 F7 50 94 
  1010)     27650.2  Rx     00000114  8  00 00 00 00 00 00 00 00 
  1011)     27650.5  Rx     00000115  8  77 7D 0E 70 17 6C C3 DB 
  1012)     27650.8  Rx     00000114  8  00 00 00 00 00 00 00 00 
  1013)     27651.1  Rx     00000115  8  01 FE F9 2D 34 15 36 FA 
  1014)     27651.4  Rx     00000114  8  00 00 00 00 00 00 00 00 
  1015)     27651.7  Rx     00000115  8  C2 71 A8 6B B2 C9 83 86 
  1016)     27654.8  Rx     00000114  8  00 00 00 00 00 00 00 00 
  1017)     27655.1  Rx     00000115  8  58 22 D4 27 16 3F DB 76 
  1018)     27655.4  Rx     00000114  8  00 00 00 00 00 00 00 00 
  1019)     27655.7  Rx     00000115  8  6A E3 EA 00 79 41 5C B4 
  1020)     27656.0  Rx     00000114  8  00 00 00 00 00 00 00 00 
  1021)     27656.3  Rx     00000115  8  BE AE 85 98 02 9F 4F D8 
  1022)     27656.6  Rx     00000114  8  00 00 00 00 00 00 00 00 
  1023)     27656.9  Rx     00000115  8  8C 89 FD 36 B6 47 8D 69 
  1024)     27657.2  Rx     00000114  8  00 00 00 00 00 00 00 00 
  1025)     27657.5  Rx     00000115  8  89 1B 16 32 73 6C 92 86 
  1026)     27657.8  Rx     00000114  8  00 00 00 00 00 00 00 00 
  1027)     27658.1  Rx     00000115  8  36 4D C0 2B 5C 36 E6 1B 
  1028)     27658.4  Rx     00000114  8  00 00 00 00 00 00 00 00 
  1029)     27658.7  Rx     00000115  8  E0 A3 6D E0 D6 1A B3 D8 
  1030)     27659.0  Rx     00000114  8  00 00 00 00 00 00 00 00 
  1031)     27659.3  Rx     00000115  8  3D FD 37 13 B8 5E D6 77 
  1032)     27659.6  Rx     00000114  8  00 00 00 00 00 00 00 00 
  1033)     27659.9  Rx     00000115  8  45 9F 8B DE 05 8A 79 55 
  1034)     27660.2  Rx     00000114  8  00 00 00 00 00 00 00 00 
  1035)     27660.4  Rx     00000115  8  06 C9 4D BC 16 57 73 B6 
  1036)     27660.8  Rx     00000114  8  00 00 00 00 00 00 00 00 
  1037)     27661.0  Rx     00000115  8  83 9F 9E 94 3D 2F 36 FD 
  1038)     27661.3  Rx     00000114  8  00 00 00 00 00 00 00 00 
  1039)     27661.6  Rx     00000115  8  61 8C 5E 7F 86 A3 F2 C9 
  1040)     27661.9  Rx     00000114  8  00 00 00 00 00 00 00 00 
  1041)     27662.2  Rx     00000115  8  37 4F EA FD 49 66 1C F9 
  1042)     27662.5  Rx     00000114  8  00 00 00 00 00 00 00 00 
  1043)     27662.8  Rx     00000115  8  26 1D E0 48 77 A0 78 A8 
  1044)     27663.1  Rx     00000114  8  00 00 00 00 00 00 00 00 
  1045)     27663.4  Rx     00000115  8  01 93 EC CC B9 E5 64 B1 
  1046)     27663.7  Rx     00000114  8  00 00 00 00 00 00 00 00 
  1047)     27664.0  Rx     00000115  8  C8 8F 54 F3 9D 47 6B 90 
  1048)     27664.3  Rx     00000114  8  00 00 00 00 00 00 00 00 
  1049)     27664.6  Rx     00000115  8  F7 7D 04 2B C0 E8 6F 12 
  1050)     27664.9  Rx     00000114  8  00 00 00 00 00 00 00 00 
  1051)     27665.2  Rx     00000115  8  70 C0 2E 9D 50 80 29 F3 
  1052)     27665.5  Rx     00000114  8  00 00 00 00 00 00 00 00 
  1053)     27665.7  Rx     00000115  8  06 FB 21 19 59 D7 F1 08 
  1054)     27666.1  Rx     00000114  8  00 00 00 00 00 00 00 00 
  1055)     27666.3  Rx     00000115  8  2F 1D 39 98 8A F1 9F 3D 
  1056)     27666.6  Rx     00000114  8  00 00 00 00 00 00 00 00 
  1057)     27666.9  Rx     00000115  8  A8 CF F4 7E D4 59 AE 54 
  1058)     27667.2  Rx     00000114  8  00 00 00 00 00 00 00 00 
  1059)     27667.5  Rx     00000115  8  9C D1 35 E1 F0 F0 AD C6 
  1060)     27667.8  Rx     00000114  8  00 00 00 00 00 00 00 00 
  1061)     27668.1  Rx     00000115  8  47 C0 B3 F3 73 86 6D 5C 
  1062)     27668.4  Rx     00000114  8  00 00 00 00 00 00 00 00 
  1063)     27668.7  Rx     00000115  8  39 D5 66 57 3B CD F5 91 
  1064)     27669.0  Rx     00000114  8  00 00 00 00 00 00 00 00 
  1065)     27669.3  Rx     00000115  8  2F C0 27 67 4D 31 AF 7A 
  1066)     27669.6  Rx     00000114  8  00 00 00 00 00 00 00 00 
  1067)     28152.1  Rx     00000115  8  40 E3 0A D1 13 F0 28 76 
  1068)     28152.4  Rx     00000114  8  00 00 00 00 00 00 00 00 
  1069)     28152.7  Rx     00000115  8  C8 D6 93 4E A9 6D FC 8D 
  1070)     28153.0  Rx     00000114  8  00 00 00 00 00 00 00 00 
  1071)     28153.2  Rx     00000115  8  BC 23 AB 7B F7 89 EA 4B 
  1072)     28153.6  Rx     00000114  8  00 00 00 00 00 00 00 00 
  1073)     28153.8  Rx     00000115  8  92 50 B6 E0 9E 3C CC CB 
  1074)     28154.1  Rx     00000114  8  00 00 00 00 00 00 00 00 
  1075)     28154.4  Rx     00000115  8  FF 46 18 64 2D A6 2F 05 
  1076)     28154.7  Rx     00000114  8  00 00 00 00 00 00 00 00 
  1077)     28155.0  Rx     00000115  8  5E A4 97 53 99 74 0E BD 
  1078)     28155.3  Rx     00000114  8  00 00 00 00 00 00 00 00 
  1079)     28155.6  Rx     00000115  8  0A DA 46 47 98 9F F1 A8 
  1080)     28165.8  Rx     00000114  8  00 00 00 00 00 00 00 00 
  1081)     28166.1  Rx     00000115  8  DB C5 8A AC 99 51 6D 01 
  1082)     28166.4  Rx     00000114  8  00 00 00 00 00 00 00 00 
  1083)     28166.7  Rx     00000115  8  7E D3 91 AF 3D 5D 45 E8 
  1084)     28167.0  Rx     00000114  8  00 00 00 00 00 00 00 00 
  1085)     28167.3  Rx     00000115  8  BF 6D 4D 49 D2 63 C8 BB 
  1086)     28167.6  Rx     00000114  8  00 00 00 00 00 00 00 00 
  1087)     28167.9  Rx     00000115  8  81 C1 B2 60 79 7B 18 88 
  1088)     28168.2  Rx     00000114  8  00 00 00 00 00 00 00 00 
  1089)     28168.5  Rx     00000115  8  BF EC 1E C5 92 D6 79 69 
  1090)     28168.8  Rx     00000114  8  00 00 00 00 00 00 00 00 
  1091)     28169.1  Rx     00000115  8  54 76 16 82 E7 83 94 75 
  1092)     28169.4  Rx     00000114  8  00 00 00 00 00 00 00 00 
  1093)     28169.7  Rx     00000115  8  78 3F 87 2B E7 7B 4F 4C 
  1094)     28170.0  Rx     00000114  8  00 00 00 00 00 00 00 00 
  1095)     28170.3  Rx     00000115  8  2E F5 AE F7 DF 28 02 77 
  1096)     28170.6  Rx     00000114  8  00 00 00 00 00 00 00 00 
  1097)     28170.9  Rx     00000115  8  53 4F 8B 32 3E 95 C2 77 
  1098)     28171.2  Rx     00000114  8  00 00 00 00 00 00 00 00 
  1099)     28171.5  Rx     00000115  8  48 3A 39 3A 0F 9B 50 0E 
  1100)     28171.8  Rx     00000114  8  00 00 00 00 00 00 00 00 
  1101)     28172.1  Rx     00000115  8  A8 B8 71 F6 32 1F 5F 90 
  1102)     28172.4  Rx     00000114  8  00 00 00 00 00 00 00 00 
  1103)     28172.7  Rx     00000115  8  77 6F 53 DD D4 89 F2 FA 
  1104)     28173.0  Rx     00000114  8  00 00 00 00 00 00 00 00 
  1105)     28173.3  Rx     00000115  8  02 72 A2 42 00 64 BF 78 
  1106)     28173.6  Rx     00000114  8  00 00 00 00 00 00 00 00 
  1107)     28173.9  Rx     00000115  8  F9 8E 5F F0 08 D0 7A 0D 
  1108)     28174.2  Rx     00000114  8  00 00 00 00 00 00 00 00 
  1109)     28174.4  Rx     00000115  8  E0 BB 91 FF 1A 64 49 2E 
  1110)     28174.7  Rx     00000114  8  00 00 00 00 00 00 00 00 
  1111)     28175.0  Rx     00000115  8  4B FA F2 99 A8 2A CD 27 
  1112)     28175.3  Rx     00000114  8  00 00 00 00 00 00 00 00 
  1113)     28175.6  Rx     00000115  8  D1 01 F4 52 A8 45 46 5D 
  1114)     28175.9  Rx     00000114  8  00 00 00 00 00 00 00 00 
  1115)     28176.2  Rx     00000115  8  58 11 74 60 3A 48 A7 2E 
  1116)     28176.5  Rx     00000114  8  00 00 00 00 00 00 00 00 
  1117)     28176.8  Rx     00000115  8  B5 53 AB B0 6A 33 DA 1A 
  1118)     28177.1  Rx     00000114  8  00 00 00 00 00 00 00 00 
  1119)     28177.4  Rx     00000115  8  EE 48 4A 5F 93 32 B3 70 
  1120)     28177.7  Rx     00000114  8  00 00 00 00 00 00 00 00 
  1121)     28178.0  Rx     00000115  8  95 40 E1 01 17 2C 2A 3C 
  1122)     28178.3  Rx     00000114  8  00 00 00 00 00 00 00 00 
  1123)     28178.6  Rx     00000115  8  EA 4F DF 1D 51 FD DB F6 
  1124)     28178.9  Rx     00000114  8  00 00 00 00 00 00 00 00 
  1125)     28179.2  Rx     00000115  8  A7 85 7B 22 31 41 A2 70 
  1126)     28179.5  Rx     00000114  8  00 00 00 00 00 00 00 00 
  1127)     28179.8  Rx     00000115  8  E4 67 67 20 E4 83 B1 A1 
  1128)     28180.1  Rx     00000114  8  00 00 00 00 00 00 00 00 
  1129)     28662.5  Rx     00000115  8  99 8A 20 16 0F E1 7C 54 
  1130)     28662.9  Rx     00000114  8  00 00 00 00 00 00 00 00 
  1131)     28663.1  Rx     00000115  8  B2 9F 5A 96 50 43 58 E3 
  1132)     28663.4  Rx     00000114  8  00 00 00 00 00 00 00 00 
  1133)     28663.7  Rx     00000115  8  B2 AA BD 90 A4 2A B1 3D 
  1134)     28664.0  Rx     00000114  8  00 00 00 00 00 00 00 00 
  1135)     28664.3  Rx     00000115  8  FF 57 21 2F F6 82 D9 53 
  1136)     28664.6  Rx     00000114  8  00 00 00 00 00 00 00 00 
  1137)     28664.9  Rx     00000115  8  79 C9 A5 1B F1 EA 4A 10 
  1138)     28665.2  Rx     00000114  8  00 00 00 00 00 00 00 00 
  1139)     28665.5  Rx     00000115  8  26 61 B5 9A 9B 3F 4F 30 
  1140)     28665.8  Rx     00000114  8  00 00 00 00 00 00 00 00 
  1141)     28666.1  Rx     00000115  8  F5 74 99 39 03 2A 71 E7 
  1142)     28666.4  Rx     00000114  8  00 00 00 00 00 00 00 00 
  1143)     28666.7  Rx     00000115  8  06 DF 7E BA F6 F3 10 0E 
  1144)     28676.9  Rx     00000114  8  00 00 00 00 00 00 00 00 
  1145)     28677.2  Rx     00000115  8  24 79 D3 99 D4 0C 75 C3 
  1146)     28677.5  Rx     00000114  8  00 00 00 00 00 00 00 00 
  1147)     28677.8  Rx     00000115  8  EB AE 7E 20 76 73 A5 7F 
  1148)     28678.1  Rx     00000114  8  00 00 00 00 00 00 00 00 
  1149)     28678.4  Rx     00000115  8  6B BB 04 F2 1A 05 FF 4D 
  1150)     28678.7  Rx     00000114  8  00 00 00 00 00 00 00 00 
  1151)     28679.0  Rx     00000115  8  4B 89 85 F0 FB 8C AC 22 
  1152)     28679.2  Rx     00000114  8  00 00 00 00 00 00 00 00 
  1153)     28679.5  Rx     00000115  8  DC E6 D9 C3 7E 5E 52 8D 
  1154)     28679.8  Rx     00000114  8  00 00 00 00 00 00 00 00 
  1155)     28680.1  Rx     00000115  8  CB F7 D8 2D D8 C7 C6 47 
  1156)     28680.4  Rx     00000114  8  00 00 00 00 00 00 00 00 
  1157)     28680.7  Rx     00000115  8  41 27 B3 C3 E2 71 EB 37 
  1158)     28681.0  Rx     00000114  8  00 00 00 00 00 00 00 00 
  1159)     28681.3  Rx     00000115  8  C3 80 AC 9F 07 7E B6 19 
  1160)     28681.6  Rx     00000114  8  00 00 00 00 00 00 00 00 
  1161)     28681.9  Rx     00000115  8  73 35 84 B2 74 F7 CC 6B 
  1162)     28682.2  Rx     00000114  8  00 00 00 00 00 00 00 00 
  1163)     28682.5  Rx     00000115  8  99 2B EB C8 24 68 DF E1 
  1164)     28682.8  Rx     00000114  8  00 00 00 00 00 00 00 00 
  1165)     28683.1  Rx     00000115  8  CB 56 30 46 A7 1F 93 B7 
  1166)     28683.4  Rx     00000114  8  00 00 00 00 00 00 00 00 
  1167)     28683.7  Rx     00000115  8  8F D4 E4 71 36 DC DE B4 
  1168)     28684.0  Rx     00000114  8  00 00 00 00 00 00 00 00 
  1169)     28684.3  Rx     00000115  8  16 B6 EE 20 A8 96 19 07 
  1170)     28684.6  Rx     00000114  8  00 00 00 00 00 00 00 00 
  1171)     28684.9  Rx     00000115  8  CC 2B 47 9E BC 78 59 B8 
  1172)     28685.2  Rx     00000114  8  00 00 00 00 00 00 00 00 
  1173)     28685.5  Rx     00000115  8  3C D3 03 D3 AE 1F 97 C9 
  1174)     28685.8  Rx     00000114  8  00 00 00 00 00 00 00 00 
  1175)     28686.1  Rx     00000115  8  52 26 96 BC 44 85 24 81 
  1176)     28686.4  Rx     00000114  8  00 00 00 00 00 00 00 00 
  1177)     28686.7  Rx     00000115  8  C8 85 3A BD B8 F0 A0 40 
  1178)     28687.0  Rx     00000114  8  00 00 00 00 00 00 00 00 
  1179)     28687.3  Rx     00000115  8  49 BE 45 E5 2B 60 C3 BF 
  1180)     28687.6  Rx     00000114  8  00 00 00 00 00 00 00 00 
  1181)     28687.9  Rx     00000115  8  56 2B 45 0D 81 C5 35 BF 
  1182)     28688.2  Rx     00000114  8  00 00 00 00 00 00 00 00 
  1183)     28688.5  Rx     00000115  8  02 83 90 DE 9E 6C AE 60 
  1184)     28688.8  Rx     00000114  8  00 00 00 00 00 00 00 00 
  1185)     28689.0  Rx     00000115  8  4C 91 EA E6 B5 31 7F F8 
  1186)     28689.4  Rx     00000114  8  00 00 00 00 00 00 00 00 
  1187)     28689.6  Rx     00000115  8  50 1F 2F A4 35 9A 86 93 
  1188)     28690.0  Rx     00000114  8  00 00 00 00 00 00 00 00 
  1189)     28690.2  Rx     00000115  8  D6 BC DE BD 53 6F BC 9B 
  1190)     28690.5  Rx     00000114  8  00 00 00 00 00 00 00 00 
  1191)     29173.0  Rx     00000115  8  19 60 E1 FC 1E DD 7F 73 
  1192)     29173.3  Rx     00000114  8  00 00 00 00 00 00 00 00 
  1193)     29173.6  Rx     00000115  8  32 77 A2 84 B2 35 CB B5 
  1194)     29173.9  Rx     00000114  8  00 00 00 00 00 00 00 00 
  1195)     29174.2  Rx     00000115  8  9A AA B3 13 CE 16 E5 B4 
  1196)     29174.5  Rx     00000114  8  00 00 00 00 00 00 00 00 
  1197)     29174.8  Rx     00000115  8  28 8F 08 C6 60 C1 7D 56 
  1198)     29175.1  Rx     00000114  8  00 00 00 00 00 00 00 00 
  1199)     29175.4  Rx     00000115  8  76 61 BA 3E E2 AC 3D CE 
  1200)     29175.7  Rx     00000114  8  00 00 00 00 00 00 00 00 
  1201)     29176.0  Rx     00000115  8  C4 53 91 FA E6 C9 C3 5C 
  1202)     29176.3  Rx     00000114  8  00 00 00 00 00 00 00 00 
  1203)     29176.5  Rx     00000115  8  DA 82 1A 95 59 E2 A3 D8 
  1204)     29176.9  Rx     00000114  8  00 00 00 00 00 00 00 00 
  1205)     29177.1  Rx     00000115  8  B1 97 83 B5 36 67 7E 86 
  1206)     29177.4  Rx     00000114  8  00 00 00 00 00 00 00 00 
  1207)     29177.7  Rx     00000115  8  D6 72 5F FA 65 C8 84 F6 
  1208)     29187.9  Rx     00000114  8  00 00 00 00 00 00 00 00 
  1209)     29188.2  Rx     00000115  8  8A F9 5B 1C 2C F1 7D 8C 
  1210)     29188.5  Rx     00000114  8  00 00 00 00 00 00 00 00 
  1211)     29188.8  Rx     00000115  8  FD 3A 61 DB 95 25 65 64 
  1212)     29189.1  Rx     00000114  8  00 00 00 00 00 00 00 00 
  1213)     29189.4  Rx     00000115  8  37 C2 39 D4 FF 3A 04 CB 
  1214)     29189.7  Rx     00000114  8  00 00 00 00 00 00 00 00 
  1215)     29190.0  Rx     00000115  8  06 70 DB 1F DA E5 BB 26 
  1216)     29190.3  Rx     00000114  8  00 00 00 00 00 00 00 00 
  1217)     29190.6  Rx     00000115  8  9D 16 01 18 AF 51 5E 78 
  1218)     29190.9  Rx     00000114  8  00 00 00 00 00 00 00 00 
  1219)     29191.2  Rx     00000115  8  30 1A 61 C6 E6 53 05 DD 
  1220)     29191.5  Rx     00000114  8  00 00 00 00 00 00 00 00 
  1221)     29191.8  Rx     00000115  8  9E 07 57 DE 48 0B DB 8D 
  1222)     29192.1  Rx     00000114  8  00 00 00 00 00 00 00 00 
  1223)     29192.4  Rx     00000115  8  DF AF 63 3A 01 17 22 8B 
  1224)     29192.7  Rx     00000114  8  00 00 00 00 00 00 00 00 
  1225)     29193.0  Rx     00000115  8  44 7D 75 46 A3 FD F7 88 
  1226)     29193.3  Rx     00000114  8  00 00 00 00 00 00 00 00 
  1227)     29193.6  Rx     00000115  8  C7 61 4F 7A F8 E3 AE 49 
  1228)     29193.9  Rx     00000114  8  00 00 00 00 00 00 00 00 
  1229)     29194.2  Rx     00000115  8  DF 99 FF 54 4E B0 DF 55 
  1230)     29194.5  Rx     00000114  8  00 00 00 00 00 00 00 00 
  1231)     29194.8  Rx     00000115  8  77 72 84 5E CD 84 7E 16 
  1232)     29195.1  Rx     00000114  8  00 00 00 00 00 00 00 00 
  1233)     29195.4  Rx     00000115  8  9B 99 49 00 D3 85 89 C3 
  1234)     29195.7  Rx     00000114  8  00 00 00 00 00 00 00 00 
  1235)     29195.9  Rx     00000115  8  81 22 ED 69 33 82 87 C5 
  1236)     29196.3  Rx     00000114  8  00 00 00 00 00 00 00 00 
  1237)     29196.5  Rx     00000115  8  BD 1F 25 19 DE BB 21 13 
  1238)     29196.9  Rx     00000114  8  00 00 00 00 00 00 00 00 
  1239)     29197.1  Rx     00000115  8  5D 4F 0E D2 0A BB A1 F2 
  1240)     29197.4  Rx     00000114  8  00 00 00 00 00 00 00 00 
  1241)     29197.7  Rx     00000115  8  79 B7 6A 19 48 5C AA 85 
  1242)     29198.0  Rx     00000114  8  00 00 00 00 00 00 00 00 
  1243)     29198.3  Rx     00000115  8  11 ED 44 F9 3C E0 97 D6 
  1244)     29198.6  Rx     00000114  8  00 00 00 00 00 00 00 00 
  1245)     29198.9  Rx     00000115  8  54 94 D9 0C E1 90 32 DC 
  1246)     29199.2  Rx     00000114  8  00 00 00 00 00 00 00 00 
  1247)     29199.5  Rx     00000115  8  52 D7 A8 A6 C4 1A 36 A5 
  1248)     29199.8  Rx     00000114  8  00 00 00 00 00 00 00 00 
  1249)     29200.1  Rx     00000115  8  0C 47 01 CB B5 1C 35 E6 
  1250)     29200.4  Rx     00000114  8  00 00 00 00 00 00 00 00 
  1251)     29200.7  Rx     00000115  8  43 B4 83 88 AB A1 82 96 
  1252)     29201.0  Rx     00000114  8  00 00 00 00 00 00 00 00 
  1253)     29683.4  Rx     00000115  8  E2 A5 D5 F3 94 38 7E 58 
  1254)     29683.8  Rx     00000114  8  00 00 00 00 00 00 00 00 
  1255)     29684.0  Rx     00000115  8  A3 C4 92 1C 9A E3 53 F7 
  1256)     29684.4  Rx     00000114  8  00 00 00 00 00 00 00 00 
  1257)     29684.6  Rx     00000115  8  44 CB A8 F6 62 33 59 0E 
  1258)     29684.9  Rx     00000114  8  00 00 00 00 00 00 00 00 
  1259)     29685.2  Rx     00000115  8  F2 EC C9 52 66 58 6C 78 
  1260)     29685.5  Rx     00000114  8  00 00 00 00 00 00 00 00 
  1261)     29685.8  Rx     00000115  8  53 66 AF E7 14 8E 3B 87 
  1262)     29686.1  Rx     00000114  8  00 00 00 00 00 00 00 00 
  1263)     29686.4  Rx     00000115  8  4C 8D 38 B1 9B 58 98 99 
  1264)     29686.7  Rx     00000114  8  00 00 00 00 00 00 00 00 
  1265)     29687.0  Rx     00000115  8  48 5D C0 CF 7B F2 2A 27 
  1266)     29687.3  Rx     00000114  8  00 00 00 00 00 00 00 00 
  1267)     29687.6  Rx     00000115  8  87 99 A3 67 E0 59 27 B8 
  1268)     29687.9  Rx     00000114  8  00 00 00 00 00 00 00 00 
  1269)     29688.2  Rx     00000115  8  00 E4 5E 01 B3 64 C2 31 
  1270)     29688.5  Rx     00000114  8  00 00 00 00 00 00 00 00 
  1271)     29688.8  Rx     00000115  8  1C 8C 51 B3 11 91 03 69 
  1272)     29699.0  Rx     00000114  8  00 00 00 00 00 00 00 00 
  1273)     29699.3  Rx     00000115  8  8C 80 CA EF FA 35 80 D5 
  1274)     29699.6  Rx     00000114  8  00 00 00 00 00 00 00 00 
  1275)     29699.9  Rx     00000115  8  F0 EF C9 9B 0F D3 52 66 
  1276)     29700.1  Rx     00000114  8  00 00 00 00 00 00 00 00 
  1277)     29700.4  Rx     00000115  8  52 33 2F CD 80 1C 59 0D 
  1278)     29700.7  Rx     00000114  8  00 00 00 00 00 00 00 00 
  1279)     29701.0  Rx     00000115  8  EF 37 1E A6 7F FF 4E 1B 
  1280)     29701.3  Rx     00000114  8  00 00 00 00 00 00 00 00 
  1281)     29701.6  Rx     00000115  8  2A EF 14 8A 7B 4A A0 9E 
  1282)     29701.9  Rx     00000114  8  00 00 00 00 00 00 00 00 
  1283)     29702.2  Rx     00000115  8  40 D9 F1 7A A4 C6 5D 1E 
  1284)     29702.5  Rx     00000114  8  00 00 00 00 00 00 00 00 
  1285)     29702.8  Rx     00000115  8  BB 00 8D 8B 33 87 81 89 
  1286)     29703.1  Rx     00000114  8  00 00 00 00 00 00 00 00 
  1287)     29703.4  Rx     00000115  8  B5 A9 2D EA FB 86 3A D6 
  1288)     29703.7  Rx     00000114  8  00 00 00 00 00 00 00 00 
  1289)     29704.0  Rx     00000115  8  C9 7E 95 85 5C 9B 6D 6A 
  1290)     29704.3  Rx     00000114  8  00 00 00 00 00 00 00 00 
  1291)     29704.6  Rx     00000115  8  7E EA C7 AD 53 34 A0 5B 
  1292)     29704.9  Rx     00000114  8  00 00 00 00 00 00 00 00 
  1293)     29705.2  Rx     00000115  8  F4 D6 2D A2 8C 68 C7 AB 
  1294)     29705.5  Rx     00000114  8  00 00 00 00 00 00 00 00 
  1295)     29705.8  Rx     00000115  8  EE D6 6D 52 10 A4 93 C1 
  1296)     29706.1  Rx     00000114  8  00 00 00 00 00 00 00 00 
  1297)     29706.3  Rx     00000115  8  D4 DE 38 20 91 73 74 26 
  1298)     29706.7  Rx     00000114  8  00 00 00 00 00 00 00 00 
  1299)     29706.9  Rx     00000115  8  F3 C8 48 C3 7F AB 66 01 
  1300)     29707.2  Rx     00000114  8  00 00 00 00 00 00 00 00 
  1301)     29707.5  Rx     00000115  8  9F 9F DC CD 17 D7 84 56 
  1302)     29707.8  Rx     00000114  8  00 00 00 00 00 00 00 00 
  1303)     29708.1  Rx     00000115  8  D9 C3 57 3B 9B 72 9F 0D 
  1304)     29708.4  Rx     00000114  8  00 00 00 00 00 00 00 00 
  1305)     29708.7  Rx     00000115  8  E4 FD 9B B5 19 57 FC C8 
  1306)     29709.0  Rx     00000114  8  00 00 00 00 00 00 00 00 
  1307)     29709.3  Rx     00000115  8  71 9B FF 37 06 8D D5 38 
  1308)     29709.6  Rx     00000114  8  00 00 00 00 00 00 00 00 
  1309)     29709.9  Rx     00000115  8  42 89 A3 63 FC 97 AC F7 
  1310)     29710.2  Rx     00000114  8  00 00 00 00 00 00 00 00 
  1311)     29710.5  Rx     00000115  8  6D EC D0 43 42 A7 85 D3 
  1312)     29710.8  Rx     00000114  8  00 00 00 00 00 00 00 00 
  1313)     29711.1  Rx     00000115  8  22 1C F3 E6 8E 16 49 57 
  1314)     29711.4  Rx     00000114  8  00 00 00 00 00 00 00 00 
  1315)     30193.9  Rx     00000115  8  43 36 38 6D C1 BC DC 22 
  1316)     30194.2  Rx     00000114  8  00 00 00 00 00 00 00 00 
  1317)     30194.5  Rx     00000115  8  81 1A A6 2F 62 C6 75 2B 
  1318)     30194.8  Rx     00000114  8  00 00 00 00 00 00 00 00 
  1319)     30195.0  Rx     00000115  8  92 F3 86 4E BE 88 17 8B 
  1320)     30195.4  Rx     00000114  8  00 00 00 00 00 00 00 00 
  1321)     30195.6  Rx     00000115  8  6F BC 28 F9 40 51 71 5D 
  1322)     30196.0  Rx     00000114  8  00 00 00 00 00 00 00 00 
  1323)     30196.2  Rx     00000115  8  A8 FB 6D D9 DE F1 26 15 
  1324)     30196.5  Rx     00000114  8  00 00 00 00 00 00 00 00 
  1325)     30196.8  Rx     00000115  8  36 F1 42 F9 67 09 77 84 
  1326)     30197.1  Rx     00000114  8  00 00 00 00 00 00 00 00 
  1327)     30197.4  Rx     00000115  8  D5 FD 92 FE 14 DB EB 13 
  1328)     30197.7  Rx     00000114  8  00 00 00 00 00 00 00 00 
  1329)     30198.0  Rx     00000115  8  44 2A AF 99 05 9D 92 05 
  1330)     30198.3  Rx     00000114  8  00 00 00 00 00 00 00 00 
  1331)     30198.6  Rx     00000115  8  8D 66 39 2F 1E E7 CE 6B 
  1332)     30198.9  Rx     00000114  8  00 00 00 00 00 00 00 00 
  1333)     30199.2  Rx     00000115  8  AA 13 F4 2B 2E E6 1B 3F 
  1334)     30199.5  Rx     00000114  8  00 00 00 00 00 00 00 00 
  1335)     30199.8  Rx     00000115  8  45 47 56 1B FA BF 99 18 
  1336)     30210.0  Rx     00000114  8  00 00 00 00 00 00 00 00 
  1337)     30210.3  Rx     00000115  8  43 E8 29 0F 76 00 1D F6 
  1338)     30210.6  Rx     00000114  8  00 00 00 00 00 00 00 00 
  1339)     30210.9  Rx     00000115  8  5D D6 53 E0 F3 C8 62 AF 
  1340)     30211.2  Rx     00000114  8  00 00 00 00 00 00 00 00 
  1341)     30211.5  Rx     00000115  8  13 C0 72 9A 28 24 5E 7F 
  1342)     30211.8  Rx     00000114  8  00 00 00 00 00 00 00 00 
  1343)     30212.1  Rx     00000115  8  E8 4F 60 35 81 4F E3 2A 
  1344)     30212.4  Rx     00000114  8  00 00 00 00 00 00 00 00 
  1345)     30212.7  Rx     00000115  8  37 D2 31 30 BB F6 EF B4 
  1346)     30213.0  Rx     00000114  8  00 00 00 00 00 00 00 00 
  1347)     30213.3  Rx     00000115  8  EF 3D 4C B2 DC FE EC C5 
  1348)     30213.6  Rx     00000114  8  00 00 00 00 00 00 00 00 
  1349)     30213.9  Rx     00000115  8  E9 47 4F 53 CD 3E 71 84 
  1350)     30214.2  Rx     00000114  8  00 00 00 00 00 00 00 00 
  1351)     30214.5  Rx     00000115  8  61 77 16 83 65 9A 2A 04 
  1352)     30214.8  Rx     00000114  8  00 00 00 00 00 00 00 00 
  1353)     30215.1  Rx     00000115  8  DB 9D C5 A8 F0 43 27 5D 
  1354)     30215.4  Rx     00000114  8  00 00 00 00 00 00 00 00 
  1355)     30215.7  Rx     00000115  8  AE 32 DA 1F F7 3C FF 70 
  1356)     30216.0  Rx     00000114  8  00 00 00 00 00 00 00 00 
  1357)     30216.3  Rx     00000115  8  48 2B 7C 00 2B 6E 47 25 
  1358)     30216.6  Rx     00000114  8  00 00 00 00 00 00 00 00 
  1359)     30216.9  Rx     00000115  8  E5 F7 06 AE E0 CF AA 98 
  1360)     30217.1  Rx     00000114  8  00 00 00 00 00 00 00 00 
  1361)     30217.4  Rx     00000115  8  46 C2 5A 2B 3B 89 E5 21 
  1362)     30217.7  Rx     00000114  8  00 00 00 00 00 00 00 00 
  1363)     30218.0  Rx     00000115  8  34 62 19 BB 85 3B 41 62 
  1364)     30218.3  Rx     00000114  8  00 00 00 00 00 00 00 00 
  1365)     30218.6  Rx     00000115  8  74 DC E2 54 79 AD 44 7A 
  1366)     30218.9  Rx     00000114  8  00 00 00 00 00 00 00 00 
  1367)     30219.2  Rx     00000115  8  82 32 C4 6E F1 CB 43 EA 
  1368)     30219.5  Rx     00000114  8  00 00 00 00 00 00 00 00 
  1369)     30219.8  Rx     00000115  8  29 3A B8 7B BF 79 81 14 
  1370)     30220.1  Rx     00000114  8  00 00 00 00 00 00 00 00 
  1371)     30220.4  Rx     00000115  8  5A 6A 8A 3A FF BB A5 33 
  1372)     30220.7  Rx     00000114  8  00 00 00 00 00 00 00 00 
  1373)     30220.9  Rx     00000115  8  59 44 90 10 56 A2 AF 2B 
  1374)     30221.3  Rx     00000114  8  00 00 00 00 00 00 00 00 
  1375)     30221.5  Rx     00000115  8  02 8C CA CE AD 58 44 09 
  1376)     30221.9  Rx     00000114  8  00 00 00 00 00 00 00 00 
  1377)     30704.3  Rx     00000115  8  5F E7 18 D9 D0 40 11 6B 
  1378)     30704.6  Rx     00000114  8  00 00 00 00 00 00 00 00 
  1379)     30704.9  Rx     00000115  8  7C B8 45 B3 25 2B 15 1B 
  1380)     30705.2  Rx     00000114  8  00 00 00 00 00 00 00 00 
  1381)     30705.5  Rx     00000115  8  F2 D7 21 41 E6 42 55 5E 
  1382)     30705.8  Rx     00000114  8  00 00 00 00 00 00 00 00 
  1383)     30706.1  Rx     00000115  8  EA 1D 51 ED B5 22 7D E6 
  1384)     30706.4  Rx     00000114  8  00 00 00 00 00 00 00 00 
  1385)     30706.7  Rx     00000115  8  72 EF 8B 37 D7 32 57 0B 
  1386)     30707.0  Rx     00000114  8  00 00 00 00 00 00 00 00 
  1387)     30707.3  Rx     00000115  8  09 CD 96 86 BA A9 11 93 
  1388)     30707.6  Rx     00000114  8  00 00 00 00 00 00 00 00 
  1389)     30707.9  Rx     00000115  8  68 D8 52 57 A9 DE F5 57 
  1390)     30708.1  Rx     00000114  8  00 00 00 00 00 00 00 00 
  1391)     30708.4  Rx     00000115  8  A4 C0 59 5E F5 B2 A9 5C 
  1392)     30708.7  Rx     00000114  8  00 00 00 00 00 00 00 00 
  1393)     30709.0  Rx     00000115  8  E3 D8 01 E1 C8 A4 B3 CB 
  1394)     30709.3  Rx     00000114  8  00 00 00 00 00 00 00 00 
  1395)     30709.6  Rx     00000115  8  FD 45 D1 96 B2 FD F4 38 
  1396)     30709.9  Rx     00000114  8  00 00 00 00 00 00 00 00 
  1397)     30710.2  Rx     00000115  8  8D 5F EC B4 FD 67 13 21 
  1398)     30710.5  Rx     00000114  8  00 00 00 00 00 00 00 00 
  1399)     30710.8  Rx     00000115  8  1E 8C AD 45 F0 41 2C 62 
  1400)     30721.0  Rx     00000114  8  00 00 00 00 00 00 00 00 
  1401)     30721.3  Rx     00000115  8  1C 71 B4 C4 77 3A CE 1E 
  1402)     30721.6  Rx     00000114  8  00 00 00 00 00 00 00 00 
  1403)     30721.9  Rx     00000115  8  98 EB AB B0 16 08 66 6B 
  1404)     30722.2  Rx     00000114  8  00 00 00 00 00 00 00 00 
  1405)     30722.5  Rx     00000115  8  BC EA CE A8 6B 0C 75 0C 
  1406)     30722.8  Rx     00000114  8  00 00 00 00 00 00 00 00 
  1407)     30723.1  Rx     00000115  8  C7 E7 8F 6A 4D 02 AB C7 
  1408)     30723.4  Rx     00000114  8  00 00 00 00 00 00 00 00 
  1409)     30723.7  Rx     00000115  8  33 31 84 4B 2C 3A DF 13 
  1410)     30724.0  Rx     00000114  8  00 00 00 00 00 00 00 00 
  1411)     30724.3  Rx     00000115  8  9A 95 9F 57 F0 8A 4E 55 
  1412)     30724.6  Rx     00000114  8  00 00 00 00 00 00 00 00 
  1413)     30724.9  Rx     00000115  8  66 D2 BB EC 68 48 43 AE 
  1414)     30725.2  Rx     00000114  8  00 00 00 00 00 00 00 00 
  1415)     30725.5  Rx     00000115  8  2C 54 10 8C 49 4A 33 10 
  1416)     30725.8  Rx     00000114  8  00 00 00 00 00 00 00 00 
  1417)     30726.0  Rx     00000115  8  01 36 D3 EC 74 09 D7 74 
  1418)     30726.4  Rx     00000114  8  00 00 00 00 00 00 00 00 
  1419)     30726.6  Rx     00000115  8  B6 5E 95 B7 E7 74 FA C8 
  1420)     30727.0  Rx     00000114  8  00 00 00 00 00 00 00 00 
  1421)     30727.2  Rx     00000115  8  8C 6B BE F9 38 C7 B8 02 
  1422)     30727.5  Rx     00000114  8  00 00 00 00 00 00 00 00 
  1423)     30727.8  Rx     00000115  8  31 B6 C6 DF 92 D9 40 A8 
  1424)     30728.1  Rx     00000114  8  00 00 00 00 00 00 00 00 
  1425)     30728.4  Rx     00000115  8  87 14 69 86 24 CD BE 06 
  1426)     30728.7  Rx     00000114  8  00 00 00 00 00 00 00 00 
  1427)     30729.0  Rx     00000115  8  6B AB D1 E3 91 24 32 3B 
  1428)     30729.3  Rx     00000114  8  00 00 00 00 00 00 00 00 
  1429)     30729.6  Rx     00000115  8  62 C9 AE 54 7F D5 7C C2 
  1430)     30729.9  Rx     00000114  8  00 00 00 00 00 00 00 00 
  1431)     30730.2  Rx     00000115  8  B1 A7 AC 91 95 20 46 82 
  1432)     30730.5  Rx     00000114  8  00 00 00 00 00 00 00 00 
  1433)     30730.8  Rx     00000115  8  0D 9F 8F 7C 66 9A E1 35 
  1434)     30731.1  Rx     00000114  8  00 00 00 00 00 00 00 00 
  1435)     30731.4  Rx     00000115  8  68 59 FB 73 A6 94 F9 35 
  1436)     30731.7  Rx     00000114  8  00 00 00 00 00 00 00 00 
  1437)     30732.0  Rx     00000115  8  7D BC AA 4D EA D5 54 07 
  1438)     30732.3  Rx     00000114  8  00 00 00 00 00 00 00 00 
  1439)     31214.8  Rx     00000115  8  79 08 69 1C 77 05 29 8F 
  1440)     31215.1  Rx     00000114  8  00 00 00 00 00 00 00 00 
  1441)     31215.4  Rx     00000115  8  E4 5F AD 4D 95 98 8D 2E 
  1442)     31215.7  Rx     00000114  8  00 00 00 00 00 00 00 00 
  1443)     31216.0  Rx     00000115  8  89 36 AE 9A 07 45 51 B4 
  1444)     31216.3  Rx     00000114  8  00 00 00 00 00 00 00 00 
  1445)     31216.6  Rx     00000115  8  56 38 B3 3F 45 BC E6 85 
  1446)     31216.9  Rx     00000114  8  00 00 00 00 00 00 00 00 
  1447)     31217.1  Rx     00000115  8  85 A6 A2 7A 0E D6 62 D4 
  1448)     31217.5  Rx     00000114  8  00 00 00 00 00 00 00 00 
  1449)     31217.7  Rx     00000115  8  CB 1F 34 E1 12 F5 17 0E 
  1450)     31218.0  Rx     00000114  8  00 00 00 00 00 00 00 00 
  1451)     31218.3  Rx     00000115  8  B4 58 FC 8E 11 4C 3B 3C 
  1452)     31218.6  Rx     00000114  8  00 00 00 00 00 00 00 00 
  1453)     31218.9  Rx     00000115  8  A4 FE E6 58 D7 25 D4 63 
  1454)     31219.2  Rx     00000114  8  00 00 00 00 00 00 00 00 
  1455)     31219.5  Rx     00000115  8  DE 10 CC E1 53 F2 9A 8A 
  1456)     31219.8  Rx     00000114  8  00 00 00 00 00 00 00 00 
  1457)     31220.1  Rx     00000115  8  F0 9C CA EA 52 58 02 CF 
  1458)     31220.4  Rx     00000114  8  00 00 00 00 00 00 00 00 
  1459)     31220.7  Rx     00000115  8  89 73 24 90 9A D7 46 B5 
  1460)     31221.0  Rx     00000114  8  00 00 00 00 00 00 00 00 
  1461)     31221.3  Rx     00000115  8  E6 AD 34 A9 90 5E 58 56 
  1462)     31221.6  Rx     00000114  8  00 00 00 00 00 00 00 00 
  1463)     31221.9  Rx     00000115  8  A1 C8 D1 37 9E 29 4D 32 
  1464)     31232.1  Rx     00000114  8  00 00 00 00 00 00 00 00 
  1465)     31232.4  Rx     00000115  8  C4 68 5C 43 D5 99 31 9D 
  1466)     31232.7  Rx     00000114  8  00 00 00 00 00 00 00 00 
  1467)     31233.0  Rx     00000115  8  5A 44 B8 3E 16 8B D5 CD 
  1468)     31233.3  Rx     00000114  8  00 00 00 00 00 00 00 00 
  1469)     31233.5  Rx     00000115  8  E3 18 36 25 CC 42 FB DB 
  1470)     31233.9  Rx     00000114  8  00 00 00 00 00 00 00 00 
  1471)     31234.1  Rx     00000115  8  B6 65 CA 2B 12 44 7E D5 
  1472)     31234.5  Rx     00000114  8  00 00 00 00 00 00 00 00 
  1473)     31234.7  Rx     00000115  8  DD D9 FA 01 4D 62 5F 85 
  1474)     31235.0  Rx     00000114  8  00 00 00 00 00 00 00 00 
  1475)     31235.3  Rx     00000115  8  F6 8D 55 6C 48 FD 0F 4D 
  1476)     31235.6  Rx     00000114  8  00 00 00 00 00 00 00 00 
  1477)     31235.9  Rx     00000115  8  AE 67 E0 46 28 1D 1F 17 
  1478)     31236.2  Rx     00000114  8  00 00 00 00 00 00 00 00 
  1479)     31236.5  Rx     00000115  8  C1 B1 5F FA AA CA D4 07 
  1480)     31236.8  Rx     00000114  8  00 00 00 00 00 00 00 00 
  1481)     31237.1  Rx     00000115  8  58 3A 90 37 03 BF D5 CE 
  1482)     31237.4  Rx     00000114  8  00 00 00 00 00 00 00 00 
  1483)     31237.7  Rx     00000115  8  2A 2B AC 4F F9 0B 11 BD 
  1484)     31238.0  Rx     00000114  8  00 00 00 00 00 00 00 00 
  1485)     31238.3  Rx     00000115  8  17 77 90 49 9F 0C 08 05 
  1486)     31238.6  Rx     00000114  8  00 00 00 00 00 00 00 00 
  1487)     31238.9  Rx     00000115  8  21 00 D8 34 1B 53 9A 27 
  1488)     31239.2  Rx     00000114  8  00 00 00 00 00 00 00 00 
  1489)     31239.5  Rx     00000115  8  54 A9 52 06 55 A3 F6 31 
  1490)     31239.8  Rx     00000114  8  00 00 00 00 00 00 00 00 
  1491)     31240.1  Rx     00000115  8  A1 C1 E6 35 0F 84 19 F6 
  1492)     31240.4  Rx     00000114  8  00 00 00 00 00 00 00 00 
  1493)     31240.7  Rx     00000115  8  73 F6 EB 3C D7 CB 70 D6 
  1494)     31241.0  Rx     00000114  8  00 00 00 00 00 00 00 00 
  1495)     31241.2  Rx     00000115  8  A9 4B D6 75 67 74 F3 A5 
  1496)     31241.6  Rx     00000114  8  00 00 00 00 00 00 00 00 
  1497)     31241.8  Rx     00000115  8  CB 15 A6 41 98 DC 1D AD 
  1498)     31242.1  Rx     00000114  8  00 00 00 00 00 00 00 00 
  1499)     31242.4  Rx     00000115  8  66 0F 48 4B 6B 34 AB 9A 
  1500)     31242.7  Rx     00000114  8  00 00 00 00 00 00 00 00 
  1501)     31645.1  Rx     00000115  8  68 81 A4 42 49 67 11 9E 
  1502)     31645.4  Rx     00000114  8  00 00 00 00 00 00 00 00 
  1503)     31645.7  Rx     00000115  8  F6 71 02 CF DC FA 21 AD 
  1504)     31646.0  Rx     00000114  8  00 00 00 00 00 00 00 00 
  1505)     31646.3  Rx     00000115  8  B8 0A 46 A8 50 4D D3 C7 
  1506)     31646.6  Rx     00000114  8  00 00 00 00 00 00 00 00 
  1507)     31646.9  Rx     00000115  8  EC 85 AF E9 77 E4 A1 13 
  1508)     31647.2  Rx     00000114  8  00 00 00 00 00 00 00 00 
  1509)     31647.5  Rx     00000115  8  65 FB 9B A6 68 B9 0A 74 
  1510)     31647.8  Rx     00000114  8  00 00 00 00 00 00 00 00 
  1511)     31648.1  Rx     00000115  8  FA E1 EE 53 45 C9 D5 71 
  1512)     31648.4  Rx     00000114  8  00 00 00 00 00 00 00 00 
  1513)     31648.7  Rx     00000115  8  44 D2 83 85 76 D8 E7 C3 
  1514)     31649.0  Rx     00000114  8  00 00 00 00 00 00 00 00 
  1515)     31649.3  Rx     00000115  8  F6 85 3A 64 30 70 F2 71 
