    15)        79.6  Rx     0000000E  8  00 0E B6 6B 00 0D 7F 3E 
    16)        79.8  Rx     0000000F  8  14 09 0C F4 14 1D 30 55 
    17)        80.1  Rx     00000010  8  00 00 61 A8 00 00 EA 60 
    18)        80.4  Rx     00000012  8  00 0A 67 05 00 00 9E 34 
    19)        80.7  Rx     00000015  8  41 34 31 33 31 39 30 47 
    20)        81.0  Rx     00000016  8  0D 24 29 18 01 19 05 00 
    21)        81.3  Rx     00000017  8  18 01 30 30 30 30 00 00 
    22)        81.5  Rx     00000020  8  1A 43 64 47 1B 0B 65 C0 
    23)        81.8  Rx     00000021  8  FF FF 63 47 00 2C 09 00 
    24)        82.1  Rx     00000022  8  1A 43 64 13 1A BF 00 64 
    25)        82.3  Rx         0601  8  00 00 00 01 00 00 00 00 
    26)        82.6  Rx     18F20310  8  00 00 00 00 00 00 00 00 
    27)        82.9  Rx     18F60001  8  00 00 00 00 00 00 00 00 
    28)        83.2  Rx         0750  8  00 01 80 02 04 00 07 FA 
    29)       176.4  Rx     0000008C  8  00 07 00 00 00 03 04 05 
    30)       176.7  Rx     00000001  8  81 60 81 60 81 56 81 56 
    31)       176.9  Rx     00000002  8  81 56 81 60 81 60 81 6A 
    32)       177.2  Rx     00000003  8  81 6A 81 6A 81 60 81 60 
    33)       177.5  Rx     00000004  8  81 6A 81 6A 81 6A 81 60 
    34)       177.8  Rx     00000005  8  0C F1 0C EF 0C F0 08 03 
    35)       178.1  Rx     00000006  8  00 00 00 00 00 00 CF 03 
    36)       178.4  Rx     00000007  8  00 1B 15 15 01 01 00 02 
    37)       178.7  Rx     00000008  8  41 00 00 77 D6 64 18 01 
    38)       178.9  Rx     00000009  8  00 00 00 00 00 00 00 12 
    39)       179.2  Rx     0000000A  8  15 15 15 15 15 15 15 15 
    40)       179.5  Rx     0000000B  8  03 62 00 00 00 00 00 00 
    41)       179.8  Rx     0000000C  8  00 00 02 1A 1F 02 11 C0 
    42)       180.1  Rx     0000000D  8  57 41 32 4C 31 39 30 35 
    43)       180.4  Rx     0000000E  8  00 0E B6 6B 00 0D 7F 3E 
    44)       180.6  Rx     0000000F  8  14 03 0C E7 13 F3 30 22 
    45)       180.9  Rx     00000010  8  00 00 61 A8 00 00 EA 60 
    46)       181.2  Rx     00000012  8  00 0A 67 05 00 00 9E 34 
    47)       181.5  Rx     00000015  8  41 34 31 33 31 39 30 47 
    48)       181.8  Rx     00000016  8  0D 24 29 18 01 19 05 00 
    49)       182.1  Rx     00000017  8  18 01 30 30 30 30 00 00 
    50)       182.3  Rx     00000020  8  1A 43 64 47 1B 0B 65 C0 
    51)       182.6  Rx     00000021  8  FF FF 63 47 00 2C 09 00 
    52)       182.9  Rx     00000022  8  1A 43 64 13 1A BF 00 64 
    53)       183.2  Rx         0601  8  00 00 00 01 00 00 00 00 
    54)       183.5  Rx     18F20310  8  00 00 00 00 00 00 00 00 
    55)       183.7  Rx         0750  8  00 01 80 02 04 00 07 FA 
    56)       276.0  Rx     0000008C  8  00 07 00 00 00 03 04 05 
    57)       276.3  Rx     00000001  8  81 60 81 60 81 56 81 56 
    58)       276.6  Rx     00000002  8  81 60 81 60 81 60 81 60 
    59)       276.9  Rx     00000003  8  81 6A 81 6A 81 60 81 60 
    60)       277.2  Rx     00000004  8  81 60 81 6A 81 6A 81 60 
    61)       277.5  Rx     00000005  8  0C F1 0C EF 0C F0 09 03 
    62)       277.8  Rx     00000006  8  00 00 00 00 00 00 CF 02 
    63)       278.0  Rx     00000007  8  00 1B 15 15 01 01 00 02 
    64)       278.3  Rx     00000008  8  41 00 00 77 D6 64 18 01 
    65)       278.6  Rx     00000009  8  00 00 00 00 00 00 00 12 
    66)       278.9  Rx     0000000A  8  15 15 15 15 15 15 15 15 
    67)       279.2  Rx     0000000B  8  03 62 00 00 00 00 00 00 
    68)       279.5  Rx     0000000C  8  00 00 02 1A 1F 02 11 C0 
    69)       279.8  Rx     0000000D  8  57 41 32 4C 31 39 30 35 
    70)       280.1  Rx     0000000E  8  00 0E B6 6B 00 0D 7F 3E 
    71)       280.3  Rx     0000000F  8  14 03 0C F3 13 F6 30 22 
    72)       280.6  Rx     00000010  8  00 00 61 A8 00 00 EA 60 
    73)       280.9  Rx     00000012  8  00 0A 67 05 00 00 9E 34 
    74)       281.2  Rx     00000015  8  41 34 31 33 31 39 30 47 
    75)       281.5  Rx     00000016  8  0D 24 29 18 01 19 05 00 
    76)       281.8  Rx     00000017  8  18 01 30 30 30 30 00 00 
    77)       282.0  Rx     00000020  8  1A 43 64 47 1B 0B 65 C0 
    78)       282.3  Rx     00000021  8  FF FF 63 47 00 2C 09 00 
    79)       282.6  Rx     00000022  8  1A 43 64 13 1A BF 00 64 
    80)       282.8  Rx         0601  8  00 00 00 01 00 00 00 00 
    81)       283.1  Rx     18F20310  8  00 00 00 00 00 00 00 00 
    82)       283.4  Rx     18F60001  8  00 00 00 00 00 00 00 00 
    83)       283.7  Rx         0750  8  00 01 80 02 04 00 07 FA 
    84)       376.1  Rx     0000008C  8  00 07 00 00 00 03 04 05 
    85)       376.4  Rx     00000001  8  81 60 81 60 81 56 81 56 
    86)       376.7  Rx     00000002  8  81 60 81 60 81 60 81 6A 
    87)       376.9  Rx     00000003  8  81 6A 81 60 81 60 81 60 
    88)       377.2  Rx     00000004  8  81 6A 81 6A 81 6A 81 60 
    89)       377.5  Rx     00000005  8  0C F1 0C EF 0C F0 08 03 
    90)       377.8  Rx     00000006  8  00 00 00 00 00 00 CF 03 
    91)       378.1  Rx     00000007  8  00 1B 15 15 01 01 00 02 
    92)       378.4  Rx     00000008  8  41 00 00 77 D6 64 18 01 
    93)       378.7  Rx     00000009  8  00 00 00 00 00 00 00 12 
    94)       379.0  Rx     0000000A  8  15 15 15 15 15 15 15 15 
    95)       379.3  Rx     0000000B  8  03 62 00 00 00 00 00 00 
    96)       379.5  Rx     0000000C  8  00 00 02 1A 1F 02 11 C0 
    97)       379.8  Rx     0000000D  8  57 41 32 4C 31 39 30 35 
    98)       380.1  Rx     0000000E  8  00 0E B6 6B 00 0D 7F 3E 
    99)       380.4  Rx     0000000F  8  13 EC 0C DB 13 F6 30 22 
   100)       380.7  Rx     00000010  8  00 00 61 A8 00 00 EA 60 
   101)       381.0  Rx     00000012  8  00 0A 67 05 00 00 9E 34 
   102)       381.2  Rx     00000015  8  41 34 31 33 31 39 30 47 
   103)       381.5  Rx     00000016  8  0D 24 29 18 01 19 05 00 
   104)       381.8  Rx     00000017  8  18 01 30 30 30 30 00 00 
   105)       382.1  Rx     00000020  8  1A 43 64 47 1B 0B 65 C0 
   106)       382.4  Rx     00000021  8  FF FF 63 47 00 2C 09 00 
   107)       382.6  Rx     00000022  8  1A 43 64 13 1A BF 00 64 
   108)       382.9  Rx         0601  8  00 00 00 01 00 00 00 00 
   109)       383.2  Rx     18F20310  8  00 00 00 00 00 00 00 00 
   110)       383.4  Rx         0750  8  00 01 80 02 04 00 07 FA 
   111)       476.5  Rx     0000008C  8  00 07 00 00 00 03 04 05 
   112)       476.8  Rx     00000001  8  81 60 81 60 81 56 81 56 
   113)       477.1  Rx     00000002  8  81 60 81 60 81 60 81 60 
   114)       477.4  Rx     00000003  8  81 6A 81 6A 81 60 81 60 
   115)       477.7  Rx     00000004  8  81 6A 81 6A 81 6A 81 60 
   116)       478.0  Rx     00000005  8  0C F1 0C EF 0C F0 09 03 
   117)       478.3  Rx     00000006  8  00 00 00 00 00 00 CF 03 
   118)       478.5  Rx     00000007  8  00 1B 15 15 01 01 00 02 
   119)       478.8  Rx     00000008  8  41 00 00 77 D6 64 18 01 
   120)       479.1  Rx     00000009  8  00 00 00 00 00 00 00 12 
   121)       479.4  Rx     0000000A  8  15 15 15 15 15 15 15 15 
   122)       479.7  Rx     0000000B  8  03 62 00 00 00 00 00 00 
   123)       480.0  Rx     0000000C  8  00 00 02 1A 1F 02 11 C0 
   124)       480.3  Rx     0000000D  8  57 41 32 4C 31 39 30 35 
   125)       480.5  Rx     0000000E  8  00 0E B6 6B 00 0D 7F 3E 
   126)       480.8  Rx     0000000F  8  13 EF 0C DB 13 F6 30 22 
   127)       481.1  Rx     00000010  8  00 00 61 A8 00 00 EA 60 
   128)       481.4  Rx     00000012  8  00 0A 67 05 00 00 9E 34 
   129)       481.7  Rx     00000015  8  41 34 31 33 31 39 30 47 
   130)       481.9  Rx     00000016  8  0D 24 29 18 01 19 05 00 
   131)       482.2  Rx     00000017  8  18 01 30 30 30 30 00 00 
   132)       482.5  Rx     00000020  8  1A 43 64 47 1B 0B 65 C0 
   133)       482.8  Rx     00000021  8  FF FF 63 47 00 2C 09 00 
   134)       483.1  Rx     00000022  8  1A 43 64 13 1A BF 00 64 
   135)       483.4  Rx         00BB  8  02 11 00 00 41 3D 00 00 
   136)       483.6  Rx         00BE  8  00 00 00 00 00 00 00 00 
   137)       483.8  Rx         00C3  8  63 00 00 00 00 00 00 00 
   138)       484.1  Rx         0601  8  00 00 00 01 00 00 00 00 
   139)       484.4  Rx     18F20310  8  00 00 00 00 00 00 00 00 
   140)       484.7  Rx     18F60001  8  00 00 00 00 00 00 00 00 
   141)       484.9  Rx         0750  8  00 01 80 02 04 00 07 FA 
   142)       577.2  Rx     0000008C  8  00 07 00 00 00 03 04 05 
   143)       577.5  Rx     00000001  8  81 60 81 60 81 56 81 56 
   144)       577.8  Rx     00000002  8  81 60 81 60 81 60 81 60 
   145)       578.1  Rx     00000003  8  81 74 81 60 81 60 81 60 
   146)       578.3  Rx     00000004  8  81 6A 81 6A 81 6A 81 60 
   147)       578.6  Rx     00000005  8  0C F2 0C EF 0C F0 09 03 
   148)       578.9  Rx     00000006  8  00 00 00 00 00 00 CF 03 
   149)       579.2  Rx     00000007  8  00 1B 15 15 01 01 00 03 
   150)       579.5  Rx     00000008  8  41 00 00 77 D6 64 18 01 
   151)       579.8  Rx     00000009  8  00 00 00 00 00 00 00 12 
   152)       580.1  Rx     0000000A  8  15 15 15 15 15 15 15 15 
   153)       580.3  Rx     0000000B  8  03 62 00 00 00 00 00 00 
   154)       580.6  Rx     0000000C  8  00 00 02 1A 1F 02 11 C0 
   155)       580.9  Rx     0000000D  8  57 41 32 4C 31 39 30 35 
   156)       581.2  Rx     0000000E  8  00 0E B6 6B 00 0D 7F 3E 
   157)       581.5  Rx     0000000F  8  13 EC 0C DE 13 FD 30 2F 
   158)       581.8  Rx     00000010  8  00 00 61 A8 00 00 EA 60 
   159)       582.1  Rx     00000012  8  00 0A 67 05 00 00 9E 34 
   160)       582.3  Rx     00000015  8  41 34 31 33 31 39 30 47 
   161)       582.6  Rx     00000016  8  0D 24 29 18 01 19 05 00 
   162)       582.9  Rx     00000017  8  18 01 30 30 30 30 00 00 
   163)       583.2  Rx     00000020  8  1A 43 64 47 1B 0B 65 C0 
   164)       583.5  Rx     00000021  8  FF FF 63 47 00 2C 09 00 
   165)       583.8  Rx     00000022  8  1A 43 64 13 1A BF 00 64 
   166)       584.0  Rx         0601  8  00 00 00 01 00 00 00 00 
   167)       584.3  Rx     18F20310  8  00 00 00 00 00 00 00 00 
   168)       584.6  Rx         0750  8  00 01 80 02 04 00 07 FA 
   169)       677.2  Rx     0000008C  8  00 07 00 00 00 03 04 05 
   170)       677.5  Rx     00000001  8  81 60 81 60 81 56 81 56 
   171)       677.8  Rx     00000002  8  81 60 81 60 81 60 81 60 
   172)       678.1  Rx     00000003  8  81 74 81 60 81 60 81 60 
   173)       678.4  Rx     00000004  8  81 6A 81 6A 81 6A 81 60 
   174)       678.6  Rx     00000005  8  0C F2 0C EF 0C F0 09 03 
   175)       678.9  Rx     00000006  8  00 00 00 00 00 00 CF 03 
   176)       679.2  Rx     00000007  8  00 1B 15 15 01 01 00 03 
   177)       679.5  Rx     00000008  8  41 00 00 77 D6 64 19 01 
   178)       679.8  Rx     00000009  8  00 00 00 00 00 00 00 12 
   179)       680.1  Rx     0000000A  8  15 15 15 15 15 15 15 15 
   180)       680.4  Rx     0000000B  8  03 62 00 00 00 00 00 00 
   181)       680.7  Rx     0000000C  8  00 00 02 1A 1F 02 11 C0 
   182)       680.9  Rx     0000000D  8  57 41 32 4C 31 39 30 35 
   183)       681.2  Rx     0000000E  8  00 0E B6 6B 00 0D 7F 3E 
   184)       681.5  Rx     0000000F  8  13 F4 0C D9 13 F3 30 1E 
   185)       681.8  Rx     00000010  8  00 00 61 A8 00 00 EA 60 
   186)       682.1  Rx     00000012  8  00 0A 67 05 00 00 9E 34 
   187)       682.4  Rx     00000015  8  41 34 31 33 31 39 30 47 
   188)       682.7  Rx     00000016  8  0D 24 29 18 01 19 05 00 
   189)       682.9  Rx     00000017  8  19 01 30 30 30 30 00 00 
   190)       683.2  Rx     00000020  8  1A 43 64 47 1B 0B 65 C0 
   191)       683.5  Rx     00000021  8  FF FF 63 47 00 2C 09 00 
   192)       683.8  Rx     00000022  8  1A 43 64 13 1A BF 00 64 
   193)       684.0  Rx         0601  8  00 00 00 01 00 00 00 00 
   194)       684.3  Rx     18F20310  8  00 00 00 00 00 00 00 00 
   195)       684.6  Rx     18F60001  8  00 00 00 00 00 00 00 00 
   196)       684.9  Rx         0750  8  00 01 80 02 04 00 07 FA 
   197)       777.2  Rx     0000008C  8  00 07 00 00 00 03 04 05 
   198)       777.5  Rx     00000001  8  81 60 81 60 81 56 81 60 
   199)       777.8  Rx     00000002  8  81 60 81 60 81 60 81 6A 
   200)       778.1  Rx     00000003  8  81 6A 81 6A 81 60 81 60 
   201)       778.4  Rx     00000004  8  81 6A 81 6A 81 6A 81 60 
   202)       778.6  Rx     00000005  8  0C F1 0C EF 0C F0 08 03 
   203)       778.9  Rx     00000006  8  00 00 00 00 00 00 CF 05 
   204)       779.2  Rx     00000007  8  00 1B 15 15 01 01 00 02 
   205)       779.5  Rx     00000008  8  41 00 00 77 D6 64 18 01 
   206)       779.8  Rx     00000009  8  00 00 00 00 00 00 00 12 
   207)       780.1  Rx     0000000A  8  15 15 15 15 15 15 15 15 
   208)       780.4  Rx     0000000B  8  03 62 00 00 00 00 00 00 
   209)       780.6  Rx     0000000C  8  00 00 02 1A 1F 02 11 C0 
   210)       780.9  Rx     0000000D  8  57 41 32 4C 31 39 30 35 
   211)       781.2  Rx     0000000E  8  00 0E B6 6B 00 0D 7F 3E 
   212)       781.5  Rx     0000000F  8  13 F1 0C DB 13 F6 30 22 
   213)       781.8  Rx     00000010  8  00 00 61 A8 00 00 EA 60 
   214)       782.1  Rx     00000012  8  00 0A 67 05 00 00 9E 34 
   215)       782.3  Rx     00000015  8  41 34 31 33 31 39 30 47 
   216)       782.6  Rx     00000016  8  0D 24 29 18 01 19 05 00 
   217)       782.9  Rx     00000017  8  18 01 30 30 30 30 00 00 
   218)       783.2  Rx     00000020  8  1A 43 64 47 1B 0B 65 C0 
   219)       783.5  Rx     00000021  8  FF FF 63 47 00 2C 09 00 
   220)       783.7  Rx     00000022  8  1A 43 64 13 1A BF 00 64 
   221)       784.0  Rx         0601  8  00 00 00 01 00 00 00 00 
   222)       784.3  Rx     18F20310  8  00 00 00 00 00 00 00 00 
   223)       784.5  Rx         0750  8  00 01 80 02 04 00 07 FA 
   224)       877.5  Rx     0000008C  8  00 07 00 00 00 03 04 05 
   225)       877.8  Rx     00000001  8  81 60 81 60 81 56 81 56 
   226)       878.1  Rx     00000002  8  81 56 81 60 81 60 81 6A 
   227)       878.4  Rx     00000003  8  81 6A 81 6A 81 60 81 60 
   228)       878.7  Rx     00000004  8  81 6A 81 6A 81 6A 81 60 
   229)       879.0  Rx     00000005  8  0C F1 0C EF 0C F0 08 03 
   230)       879.3  Rx     00000006  8  00 00 00 00 00 00 CF 03 
   231)       879.6  Rx     00000007  8  00 1B 15 15 01 01 00 02 
   232)       879.9  Rx     00000008  8  41 00 00 77 D6 64 18 01 
   233)       880.1  Rx     00000009  8  00 00 00 00 00 00 00 12 
   234)       880.4  Rx     0000000A  8  15 15 15 15 15 15 15 15 
   235)       880.7  Rx     0000000B  8  03 62 00 00 00 00 00 00 
   236)       881.0  Rx     0000000C  8  00 00 02 1A 1F 02 11 C0 
   237)       881.3  Rx     0000000D  8  57 41 32 4C 31 39 30 35 
   238)       881.6  Rx     0000000E  8  00 0E B6 6B 00 0D 7F 3E 
   239)       881.8  Rx     0000000F  8  13 F4 0C DB 13 F6 30 22 
   240)       882.1  Rx     00000010  8  00 00 61 A8 00 00 EA 60 
   241)       882.4  Rx     00000012  8  00 0A 67 05 00 00 9E 34 
   242)       882.7  Rx     00000015  8  41 34 31 33 31 39 30 47 
   243)       883.0  Rx     00000016  8  0D 24 29 18 01 19 05 00 
   244)       883.3  Rx     00000017  8  18 01 30 30 30 30 00 00 
   245)       883.5  Rx     00000020  8  1A 43 64 47 1B 0B 65 C0 
   246)       883.8  Rx     00000021  8  FF FF 63 47 00 2C 09 00 
   247)       884.1  Rx     00000022  8  1A 43 64 13 1A BF 00 64 
   248)       884.3  Rx         0601  8  00 00 00 01 00 00 00 00 
   249)       884.6  Rx     18F20310  8  00 00 00 00 00 00 00 00 
   250)       884.9  Rx     18F60001  8  00 00 00 00 00 00 00 00 
   251)       885.2  Rx         0750  8  00 01 A0 02 04 00 07 FA 
   252)       976.4  Rx     0000008C  8  00 07 00 00 00 03 04 05 
   253)       976.7  Rx     00000001  8  81 60 81 60 81 56 81 56 
   254)       977.0  Rx     00000002  8  81 60 81 60 81 60 81 6A 
   255)       977.3  Rx     00000003  8  81 6A 81 6A 81 60 81 60 
   256)       977.5  Rx     00000004  8  81 6A 81 6A 81 6A 81 60 
   257)       977.8  Rx     00000005  8  0C F1 0C EF 0C F0 08 03 
   258)       978.1  Rx     00000006  8  00 00 00 00 00 00 CF 04 
   259)       978.4  Rx     00000007  8  00 1B 15 15 01 01 00 02 
   260)       978.7  Rx     00000008  8  41 00 00 77 D6 64 18 01 
   261)       979.0  Rx     00000009  8  00 00 00 00 00 00 00 12 
   262)       979.2  Rx     0000000A  8  15 15 15 15 15 15 15 15 
   263)       979.5  Rx     0000000B  8  03 62 00 00 00 00 00 00 
   264)       979.8  Rx     0000000C  8  00 00 02 1A 1F 02 11 C0 
   265)       980.1  Rx     0000000D  8  57 41 32 4C 31 39 30 35 
   266)       980.4  Rx     0000000E  8  00 0E B6 6B 00 0D 7F 3E 
   267)       980.7  Rx     0000000F  8  14 06 0C F3 14 20 30 1A 
   268)       981.0  Rx     00000010  8  00 00 61 A8 00 00 EA 60 
   269)       981.2  Rx     00000012  8  00 0A 67 05 00 00 9E 34 
   270)       981.5  Rx     00000015  8  41 34 31 33 31 39 30 47 
   271)       981.8  Rx     00000016  8  0D 24 29 18 01 19 05 00 
   272)       982.1  Rx     00000017  8  18 01 30 30 30 30 00 00 
   273)       982.4  Rx     00000020  8  1A 43 64 47 1B 0B 65 C0 
   274)       982.6  Rx     00000021  8  FF FF 63 47 00 2C 09 00 
   275)       982.9  Rx     00000022  8  1A 43 64 13 1A BF 00 64 
   276)       983.2  Rx         0601  8  00 00 00 01 00 00 00 00 
   277)       983.5  Rx     18F20310  8  00 00 00 00 00 00 00 00 
   278)       983.7  Rx         0750  8  00 01 80 02 04 00 07 FA 
   279)      1076.3  Rx     0000008C  8  00 07 00 00 00 03 04 05 
   280)      1076.6  Rx     00000001  8  81 60 81 60 81 56 81 56 
   281)      1076.9  Rx     00000002  8  81 60 81 60 81 60 81 6A 
   282)      1077.2  Rx     00000003  8  81 6A 81 60 81 60 81 60 
   283)      1077.5  Rx     00000004  8  81 6A 81 6A 81 6A 81 60 
   284)      1077.7  Rx     00000005  8  0C F1 0C EF 0C F0 08 03 
   285)      1078.0  Rx     00000006  8  00 00 00 00 00 00 CF 03 
   286)      1078.3  Rx     00000007  8  00 1B 15 15 01 01 00 02 
   287)      1078.6  Rx     00000008  8  41 00 00 77 D6 64 18 01 
   288)      1078.9  Rx     00000009  8  00 00 00 00 00 00 00 12 
   289)      1079.2  Rx     0000000A  8  15 15 15 15 15 15 15 15 
   290)      1079.5  Rx     0000000B  8  03 62 00 00 00 00 00 00 
   291)      1079.8  Rx     0000000C  8  00 00 02 1A 1F 02 11 C0 
   292)      1080.0  Rx     0000000D  8  57 41 32 4C 31 39 30 35 
   293)      1080.3  Rx     0000000E  8  00 0E B6 6B 00 0D 7F 3E 
   294)      1080.6  Rx     0000000F  8  13 EC 0C DB 13 F3 30 22 
   295)      1080.9  Rx     00000010  8  00 00 61 A8 00 00 EA 60 
   296)      1081.2  Rx     00000012  8  00 0A 67 05 00 00 9E 34 
   297)      1081.4  Rx     00000015  8  41 34 31 33 31 39 30 47 
   298)      1081.7  Rx     00000016  8  0D 24 2A 18 01 19 05 00 
   299)      1082.0  Rx     00000017  8  18 01 30 30 30 30 00 00 
   300)      1082.3  Rx     00000020  8  1A 43 64 47 1B 0B 65 C0 
   301)      1082.6  Rx     00000021  8  FF FF 63 47 00 2C 09 00 
   302)      1082.9  Rx     00000022  8  1A 43 64 13 1A BF 00 64 
   303)      1083.1  Rx         0601  8  00 00 00 01 00 00 00 00 
   304)      1083.4  Rx     18F20310  8  00 00 00 00 00 00 00 00 
   305)      1083.7  Rx     18F60001  8  00 00 00 00 00 00 00 00 
   306)      1083.9  Rx         0750  8  00 01 80 02 04 00 07 FA 
   307)      1176.5  Rx     0000008C  8  00 07 00 00 00 03 04 05 
   308)      1176.7  Rx     00000001  8  81 60 81 60 81 56 81 56 
   309)      1177.0  Rx     00000002  8  81 60 81 60 81 60 81 60 
   310)      1177.3  Rx     00000003  8  81 74 81 6A 81 60 81 60 
   311)      1177.6  Rx     00000004  8  81 6A 81 6A 81 6A 81 60 
   312)      1177.9  Rx     00000005  8  0C F2 0C EF 0C F0 09 03 
   313)      1178.2  Rx     00000006  8  00 00 00 00 00 00 CF 04 
   314)      1178.5  Rx     00000007  8  00 1B 15 15 01 01 00 03 
   315)      1178.7  Rx     00000008  8  41 00 00 77 D6 64 18 01 
   316)      1179.0  Rx     00000009  8  00 00 00 00 00 00 00 12 
   317)      1179.3  Rx     0000000A  8  15 15 15 15 15 15 15 15 
   318)      1179.6  Rx     0000000B  8  03 62 00 00 00 00 00 00 
   319)      1179.9  Rx     0000000C  8  00 00 02 1A 1F 02 11 C0 
   320)      1180.2  Rx     0000000D  8  57 41 32 4C 31 39 30 35 
   321)      1180.4  Rx     0000000E  8  00 0E B6 6B 00 0D 7F 3E 
   322)      1180.7  Rx     0000000F  8  13 F7 0C E6 14 08 30 4C 
   323)      1181.0  Rx     00000010  8  00 00 61 A8 00 00 EA 60 
   324)      1181.3  Rx     00000012  8  00 0A 67 05 00 00 9E 34 
   325)      1181.6  Rx     00000015  8  41 34 31 33 31 39 30 47 
   326)      1181.9  Rx     00000016  8  0D 24 2A 18 01 19 05 00 
   327)      1182.2  Rx     00000017  8  18 01 30 30 30 30 00 00 
   328)      1182.5  Rx     00000020  8  1A 43 64 47 1B 0B 65 C0 
   329)      1182.8  Rx     00000021  8  FF FF 63 47 00 2C 09 00 
   330)      1183.0  Rx     00000022  8  1A 43 64 13 1A BF 00 64 
   331)      1183.3  Rx         0601  8  00 00 00 01 00 00 00 00 
   332)      1183.6  Rx     18F20310  8  00 00 00 00 00 00 00 00 
   333)      1183.8  Rx         0750  8  00 01 80 02 04 00 07 FA 
   334)      1276.3  Rx     0000008C  8  00 07 00 00 00 03 04 05 
   335)      1276.6  Rx     00000001  8  81 60 81 60 81 56 81 56 
   336)      1276.9  Rx     00000002  8  81 60 81 60 81 60 81 60 
   337)      1277.2  Rx     00000003  8  81 6A 81 60 81 60 81 60 
   338)      1277.5  Rx     00000004  8  81 6A 81 6A 81 6A 81 60 
   339)      1277.7  Rx     00000005  8  0C F1 0C EF 0C F0 09 03 
   340)      1278.0  Rx     00000006  8  00 00 00 00 00 00 CF 02 
   341)      1278.3  Rx     00000007  8  00 1B 15 15 01 01 00 02 
   342)      1278.6  Rx     00000008  8  41 00 00 77 D6 64 19 01 
   343)      1278.9  Rx     00000009  8  00 00 00 00 00 00 00 12 
   344)      1279.2  Rx     0000000A  8  15 15 15 15 15 15 15 15 
   345)      1279.5  Rx     0000000B  8  03 62 00 00 00 00 00 00 
   346)      1279.8  Rx     0000000C  8  00 00 02 1A 1F 02 11 C0 
   347)      1280.0  Rx     0000000D  8  57 41 32 4C 31 39 30 35 
   348)      1280.3  Rx     0000000E  8  00 0E B6 6B 00 0D 7F 3E 
   349)      1280.6  Rx     0000000F  8  13 F4 0C DB 13 F6 30 1E 
   350)      1280.9  Rx     00000010  8  00 00 61 A8 00 00 EA 60 
   351)      1281.2  Rx     00000012  8  00 0A 67 05 00 00 9E 34 
   352)      1281.4  Rx     00000015  8  41 34 31 33 31 39 30 47 
   353)      1281.7  Rx     00000016  8  0D 24 2A 18 01 19 05 00 
   354)      1282.0  Rx     00000017  8  19 01 30 30 30 30 00 00 
   355)      1282.3  Rx     00000020  8  1A 43 64 47 1B 0B 65 C0 
   356)      1282.6  Rx     00000021  8  FF FF 63 47 00 2C 09 00 
   357)      1282.8  Rx     00000022  8  1A 43 64 13 1A BF 00 64 
   358)      1283.1  Rx         0601  8  00 00 00 01 00 00 00 00 
   359)      1283.4  Rx     18F20310  8  00 00 00 00 00 00 00 00 
   360)      1283.7  Rx     18F60001  8  00 00 00 00 00 00 00 00 
   361)      1284.0  Rx         0750  8  00 01 80 02 04 00 07 FA 
   362)      1376.7  Rx     0000008C  8  00 07 00 00 00 03 04 05 
   363)      1377.0  Rx     00000001  8  81 60 81 60 81 56 81 56 
   364)      1377.3  Rx     00000002  8  81 60 81 60 81 60 81 60 
   365)      1377.6  Rx     00000003  8  81 6A 81 60 81 60 81 60 
   366)      1377.8  Rx     00000004  8  81 6A 81 6A 81 6A 81 60 
   367)      1378.1  Rx     00000005  8  0C F1 0C EF 0C F0 09 03 
   368)      1378.4  Rx     00000006  8  00 00 00 00 00 00 CF 02 
   369)      1378.7  Rx     00000007  8  00 1B 15 15 01 01 00 02 
   370)      1379.0  Rx     00000008  8  41 00 00 77 D6 64 18 01 
   371)      1379.3  Rx     00000009  8  00 00 00 00 00 00 00 12 
   372)      1379.5  Rx     0000000A  8  15 15 15 15 15 15 15 15 
   373)      1379.8  Rx     0000000B  8  03 62 00 00 00 00 00 00 
   374)      1380.1  Rx     0000000C  8  00 00 02 1A 1F 02 11 C0 
   375)      1380.4  Rx     0000000D  8  57 41 32 4C 31 39 30 35 
   376)      1380.7  Rx     0000000E  8  00 0E B6 6B 00 0D 7F 3E 
   377)      1381.0  Rx     0000000F  8  13 FE 0C E8 13 F1 30 1E 
   378)      1381.3  Rx     00000010  8  00 00 61 A8 00 00 EA 60 
   379)      1381.5  Rx     00000012  8  00 0A 67 05 00 00 9E 34 
   380)      1381.8  Rx     00000015  8  41 34 31 33 31 39 30 47 
   381)      1382.1  Rx     00000016  8  0D 24 2A 18 01 19 05 00 
   382)      1382.4  Rx     00000017  8  18 01 30 30 30 30 00 00 
   383)      1382.7  Rx     00000020  8  1A 43 64 47 1B 0B 65 C0 
   384)      1382.9  Rx     00000021  8  FF FF 63 47 00 2C 09 00 
   385)      1383.2  Rx     00000022  8  1A 43 64 13 1A BF 00 64 
   386)      1383.5  Rx         0601  8  00 00 00 01 00 00 00 00 
   387)      1383.8  Rx     18F20310  8  00 00 00 00 00 00 00 00 
   388)      1384.0  Rx         0750  8  00 01 80 02 04 00 07 FA 
   389)      1477.1  Rx     0000008C  8  00 07 00 00 00 03 04 05 
   390)      1477.4  Rx     00000001  8  81 60 81 60 81 56 81 56 
   391)      1477.7  Rx     00000002  8  81 60 81 60 81 60 81 6A 
   392)      1478.0  Rx     00000003  8  81 6A 81 6A 81 60 81 60 
